# HZ S RI R 50
300000000 0.9877162559586251 -0.02825328194419685
306000000 0.9873433107374161 -0.028185792320903194
312000000 0.9859955996804445 -0.027628643245547584
318000000 0.9865080229661374 -0.029347833380381844
324000000 0.9859374254407054 -0.029916542997007356
330000000 0.986225225138329 -0.03159823010439772
336000000 0.9857043907550075 -0.031723028787936154
342000000 0.9844787198812129 -0.032469435188478786
348000000 0.9851368212394866 -0.03333484994760892
354000000 0.9848755029616029 -0.03412201760918537
360000000 0.9847728251804471 -0.03487606683146395
366000000 0.9848381546335049 -0.03650336222568266
372000000 0.9845312848505792 -0.03738733989111269
378000000 0.9840131015525374 -0.038707776748630324
384000000 0.9839862187165801 -0.03971382464118999
390000000 0.9844253915791753 -0.04015168691462991
396000000 0.9832939946471243 -0.04196493497808113
402000000 0.9812741351932112 -0.039724228513058374
408000000 0.982577763048358 -0.04407751535292348
414000000 0.9823668218783672 -0.04546671689996743
420000000 0.9823929082434616 -0.0466364087019191
426000000 0.9815354520601163 -0.04751766949237329
432000000 0.9816195966716942 -0.048920354686763784
438000000 0.9812671243532115 -0.0499067650827152
444000000 0.9814043386520184 -0.05135072858459778
450000000 0.9814737108024231 -0.05212951527668904
456000000 0.9805608238541651 -0.053411223049209346
462000000 0.9808062334777669 -0.0533730114817396
468000000 0.9782893204259496 -0.05389904704328847
474000000 0.9805326582296237 -0.05558342082344219
480000000 0.9804972265940066 -0.05665666937599122
486000000 0.9801855575931654 -0.056905872674528034
492000000 0.9808538419914481 -0.057496122433468966
498000000 0.9805096283701241 -0.05855658683742185
504000000 0.9811326714694992 -0.05951488938565988
510000000 0.9811858717862607 -0.05924782608174866
516000000 0.9808915477136713 -0.06067226259468635
522000000 0.9810755776032 -0.059782074420102096
528000000 0.9813541606515155 -0.06092686910482125
534000000 0.9810859138593185 -0.06122422494398191
540000000 0.9806551596486247 -0.06059121823362027
546000000 0.9800303143013098 -0.06196902669177158
552000000 0.9805461239108437 -0.061816376770622475
558000000 0.9806824761919835 -0.06165212942797035
564000000 0.980298379213424 -0.06205407355326332
570000000 0.9807789437884609 -0.06221922222132817
576000000 0.9809236997463622 -0.062058860486686226
582000000 0.9809649620113884 -0.06274027690647141
588000000 0.9804358326418252 -0.06234229951082039
594000000 0.981086437580703 -0.06229351214908824
600000000 0.9809566861495927 -0.06232928381130978
606000000 0.9806170576902293 -0.06279503506299772
612000000 0.9807418379047322 -0.063117156873063
618000000 0.9807202021820235 -0.06361490088096332
624000000 0.9805714060495182 -0.06363972753243315
630000000 0.9804695661206947 -0.06428911193395383
636000000 0.9808611787582082 -0.06494163333104955
642000000 0.9805132006326228 -0.06547472907588187
648000000 0.9808064878450448 -0.06544838218454313
654000000 0.9814317934375044 -0.06360143643445362
660000000 0.979972969126498 -0.0674085646813403
666000000 0.9811303965834927 -0.06749985358905429
672000000 0.9805185052794178 -0.06768643847479364
678000000 0.981105734135314 -0.06819134034385155
684000000 0.9787263410254871 -0.07052761532372256
690000000 0.9801520014888602 -0.07001043896917987
696000000 0.9803009595120182 -0.07113543842054881
702000000 0.9795623652429607 -0.07260453969176517
708000000 0.9786526177931211 -0.0727950425674006
714000000 0.9781074390055217 -0.07462632842399215
720000000 0.9777769945656519 -0.07579891286084234
726000000 0.9765635309715998 -0.07710989228845584
732000000 0.9761910079086386 -0.07930700827335024
738000000 0.9764434337429464 -0.08082528418046628
744000000 0.9756678590058709 -0.08218014896367411
750000000 0.9744539248910021 -0.08371705632537145
756000000 0.9739408830622773 -0.08656486420495858
762000000 0.9727335379332097 -0.08840765125185043
768000000 0.9721076356927754 -0.09056234581999917
774000000 0.9710943437917527 -0.09320271498997366
780000000 0.9720479198870088 -0.09342439616897748
786000000 0.9697369458325507 -0.0973133866171022
792000000 0.9684573943130975 -0.09977328614090451
798000000 0.9677519389601641 -0.10225660468090911
804000000 0.9661628521196259 -0.10463534022323852
810000000 0.9658152233738919 -0.10738082541336598
816000000 0.9648025763455018 -0.10979951318758599
822000000 0.9641970286058116 -0.11249277929532228
828000000 0.9639730834425491 -0.11466347041827708
834000000 0.9629275301800364 -0.11765913171770132
840000000 0.9623270171927433 -0.11940470911797164
846000000 0.9609194401099427 -0.12196348691970091
852000000 0.9604789090322151 -0.1254327851114563
858000000 0.960244069390473 -0.12619549363560623
864000000 0.9589821484298701 -0.1294362310450592
870000000 0.9599402989637605 -0.13226267393128505
876000000 0.9578928526159115 -0.1314715793377983
882000000 0.9590004362207651 -0.13153717298486806
888000000 0.9605100005686754 -0.1349247375079308
894000000 0.9585757355769577 -0.13804986207297695
900000000 0.9590292318396104 -0.1387581251041391
