# HZ S RI R 50
300000000 0.9904072305457877 -0.032856888210336284
306000000 0.9902090310608495 -0.03322455395084032
312000000 0.9908992775080173 -0.03363774736823203
318000000 0.990620498421304 -0.033449856827767126
324000000 0.9906493081978867 -0.03298901675436161
330000000 0.9901041898974702 -0.03175925728438022
336000000 0.9903308075900791 -0.033155593956648445
342000000 0.9906494208117843 -0.03306004747693733
348000000 0.9904695426919091 -0.0330628227296181
354000000 0.9904247248625259 -0.032905997369501325
360000000 0.9902171294600234 -0.03342167508509255
366000000 0.9906411668985645 -0.03318451899692777
372000000 0.99103959051739 -0.03345988479436293
378000000 0.9909252565813831 -0.0333730219032096
384000000 0.990694186226594 -0.033867987316499634
390000000 0.9901758189045943 -0.034750296995306254
396000000 0.9906527765934121 -0.03424571353311944
402000000 0.9906176018061176 -0.03435000567961289
408000000 0.9909307314774591 -0.03516883202483982
414000000 0.9906908344498468 -0.035045543393522505
420000000 0.9904883208482386 -0.03662844334858735
426000000 0.9900056554518909 -0.03625074569919738
432000000 0.9909064243304492 -0.036964486428353344
438000000 0.9901898509891716 -0.036952103892134144
444000000 0.9900938694615157 -0.03844629793666565
450000000 0.9898166055137071 -0.0386578384485542
456000000 0.9895968703989678 -0.039193541303656
462000000 0.9887286518966166 -0.040569987736335425
468000000 0.9850877031647576 -0.04095101905966499
474000000 0.988485328915903 -0.041634696664379335
480000000 0.988788794778 -0.04282514666837368
486000000 0.9882043961107545 -0.044274696038900635
492000000 0.987663222552367 -0.045169950172928526
498000000 0.9884203000088589 -0.04568351401776215
504000000 0.9871945147112168 -0.04655439586581261
510000000 0.9873938457574111 -0.047696254628295305
516000000 0.9887080040075896 -0.048396499049562176
522000000 0.9877723234417772 -0.04997073004960948
528000000 0.9863699802406292 -0.05050000261202176
534000000 0.9874545800448263 -0.05243067844962874
540000000 0.9874153291397022 -0.052295567584775854
546000000 0.9856361398173283 -0.05459914041575011
552000000 0.9863879809161835 -0.055420437335555024
558000000 0.9859108121351573 -0.05613764844946014
564000000 0.9862632513058686 -0.057127641420574304
570000000 0.9859018864993764 -0.05847405792061278
576000000 0.9848571437817373 -0.05966993960119098
582000000 0.984614718877489 -0.061525223564758896
588000000 0.983898355551248 -0.06261623630086195
594000000 0.9838678359110758 -0.06277376101414173
600000000 0.9840762462530273 -0.06472724588534588
606000000 0.9835693831521053 -0.06593002506676476
612000000 0.9831759165140048 -0.0673419099411942
618000000 0.9828128936878451 -0.0690800485258231
624000000 0.9828541568771693 -0.06997543977397297
630000000 0.9816005456346091 -0.07252626037578212
636000000 0.9811308571951222 -0.07457271767067404
642000000 0.9818640343897066 -0.07513024094146124
648000000 0.9813124177225198 -0.07680131003395316
654000000 0.9822449134934614 -0.07746465957249325
660000000 0.981345733642107 -0.07902698333789564
666000000 0.9813783633967545 -0.07992747505083475
672000000 0.9800985461180962 -0.08037283800203943
678000000 0.9816980201544574 -0.08202517338961834
684000000 0.9814989821400981 -0.08212822272332321
690000000 0.9810216926662481 -0.08326192438759494
696000000 0.9813530585790519 -0.08392108610711678
702000000 0.9813103564009715 -0.08604342443195058
708000000 0.9797468675380315 -0.08582449948828744
714000000 0.9781940874391049 -0.08679382940071644
720000000 0.9794927782801015 -0.0872677360811034
726000000 0.9790148869619345 -0.08819097180368593
732000000 0.9774874704027467 -0.08875556094763284
738000000 0.9778455750831563 -0.09045776186897853
744000000 0.9778354039298703 -0.09056782909754064
750000000 0.9772184110429828 -0.09176684138851851
756000000 0.9764990126671894 -0.09213395124120652
762000000 0.976128032480895 -0.09276970804471699
768000000 0.9760545425769971 -0.09342745672646882
774000000 0.9754769031926709 -0.09447690925363413
780000000 0.9782824722358655 -0.09675748682072126
786000000 0.9750080188969255 -0.0954949833520055
792000000 0.9748775471417868 -0.09612918900145888
798000000 0.9747474349865377 -0.09738552876897114
804000000 0.974220562674492 -0.0978579034490388
810000000 0.9746117504669447 -0.09952690304106952
816000000 0.9741350812349717 -0.10000341991671784
822000000 0.9732589216415108 -0.10018304310024252
828000000 0.9731701979810474 -0.10012099565159588
834000000 0.9737390649179152 -0.10311313719295725
840000000 0.9730664495904247 -0.10327771222023242
846000000 0.9731323996426268 -0.10441696921397123
852000000 0.9732391543592916 -0.10455171699524188
858000000 0.9749753104684078 -0.10269840444531786
864000000 0.97308697744405 -0.10714931602413218
870000000 0.9722610592408055 -0.1071623277965107
876000000 0.9723198016401812 -0.10314421950913534
882000000 0.9720985340926911 -0.10450567711816482
888000000 0.9719931551366319 -0.10807477689765811
894000000 0.9743531069339847 -0.1073315237375235
900000000 0.9729533109570658 -0.10713800911616081
