# HZ S RI R 50
300000000 0.984449704988004 -0.03178165997479696
306000000 0.9835896405356672 -0.03246527195299619
312000000 0.9822218580335103 -0.032888138264040044
318000000 0.9829541359711449 -0.03414707574132389
324000000 0.9823747089572871 -0.03454034739991367
330000000 0.9832259206971011 -0.03576565981838256
336000000 0.9823926981289433 -0.03595910065647942
342000000 0.9812016319229451 -0.03693900301113699
348000000 0.981769628144081 -0.03799916744097773
354000000 0.9815531478887244 -0.03907602827086741
360000000 0.9811160496020831 -0.04050945494792694
366000000 0.9812662417002824 -0.0415105669408641
372000000 0.9808725709744867 -0.042149508655411116
378000000 0.9804090544318134 -0.04359275189695122
384000000 0.9803709940470025 -0.04473166707422743
390000000 0.9811491307677848 -0.04488492839844363
396000000 0.9796023049068753 -0.04696867954372721
402000000 0.9778590759575518 -0.04513517674292223
408000000 0.978759138436257 -0.049160815381907016
414000000 0.9786516657544512 -0.050473894548243005
420000000 0.9788380683628203 -0.051853923804957076
426000000 0.977729237311542 -0.05291290825878816
432000000 0.9779877492399605 -0.05442906312133932
438000000 0.9771975356417737 -0.05491422784845143
444000000 0.9774558266264157 -0.056823501669760246
450000000 0.9774342985963611 -0.0581390083226043
456000000 0.9767414691359191 -0.0592796689258162
462000000 0.9768061851433408 -0.0603794884430066
468000000 0.9746370572262755 -0.05838489485079135
474000000 0.9763792233238445 -0.06141372269618388
480000000 0.976467652158894 -0.062425175527152994
486000000 0.9757545564220622 -0.06276187116556932
492000000 0.9769396525552949 -0.06400218441849345
498000000 0.9766231693785414 -0.0640070751482748
504000000 0.976514041400443 -0.06558036774009082
510000000 0.9773938467000882 -0.06528583556364834
516000000 0.9773594649668415 -0.0668380675039316
522000000 0.9768381718787474 -0.06615089457760774
528000000 0.9766958271069623 -0.06716176389080288
534000000 0.9766366384176737 -0.06795236575872872
540000000 0.9768506264757133 -0.06720446948109512
546000000 0.9767866243080371 -0.06820310350062189
552000000 0.9764696049411347 -0.06860517199826423
558000000 0.9761282959641179 -0.06873011507413075
564000000 0.9760666988447736 -0.06875125908730784
570000000 0.976779403830832 -0.06849831621300492
576000000 0.976392456998527 -0.068928940151143
582000000 0.9763231803715133 -0.06955102000438067
588000000 0.9758989139100807 -0.06931937065727482
594000000 0.9753458540908493 -0.0688408281145723
600000000 0.976375992280046 -0.06952860010518051
606000000 0.9759581207392952 -0.06969025290503954
612000000 0.9757947877730534 -0.0703509678586407
618000000 0.9759444313156133 -0.07084142077612429
624000000 0.9755198319747417 -0.07001659113338296
630000000 0.9754767337840776 -0.07135886686053719
636000000 0.9760410141285382 -0.07225374795306681
642000000 0.9750533309049368 -0.07322322725029
648000000 0.9758436554398726 -0.0734541111597459
654000000 0.9754677586477969 -0.07339443698128623
660000000 0.9754363464508429 -0.07379636635271022
666000000 0.975910919719981 -0.07561648742322478
672000000 0.9756391278985288 -0.07522077638552108
678000000 0.9755673383814645 -0.07654952426466972
684000000 0.9735064583072592 -0.075913582915971
690000000 0.9752052711496746 -0.07714880505646028
696000000 0.9751016882440642 -0.07834073341408858
702000000 0.9744898336243932 -0.07987933481405528
708000000 0.9736964009437346 -0.08045207593431787
714000000 0.9728961143443046 -0.08238345742195262
720000000 0.971843893405077 -0.08302757103858024
726000000 0.9717619869562926 -0.08508944300368465
732000000 0.9705591499069925 -0.08721323496547446
738000000 0.9702211190722746 -0.08901608161113869
744000000 0.9693359912223086 -0.0911923278582572
750000000 0.9685929641460734 -0.0924430550142401
756000000 0.9677127609729637 -0.09481876445397738
762000000 0.9666572248529797 -0.09718130813398829
768000000 0.9660533621418967 -0.09945229591032194
774000000 0.9646447086578002 -0.10171156649324282
780000000 0.9647512223676958 -0.10404608709353215
786000000 0.9629350071611734 -0.10616175091814183
792000000 0.9619311577029518 -0.10842815602419875
798000000 0.9613133370115053 -0.11096928743683829
804000000 0.9594616858861789 -0.11375311986382751
810000000 0.9591102236333008 -0.11653216694698089
816000000 0.9581588284290397 -0.11835765415654954
822000000 0.9569598278064442 -0.12182539224521421
828000000 0.9567476527011448 -0.1227711863804773
834000000 0.956161462685853 -0.12646076152780364
840000000 0.955450340384549 -0.12898546773690192
846000000 0.9540042146782495 -0.13057957306319004
852000000 0.9534164855517447 -0.13475542257272474
858000000 0.9541789430238388 -0.1349246325483769
864000000 0.9526824194423098 -0.1387747809083431
870000000 0.9542448690725124 -0.14264217084147687
876000000 0.9517273485536712 -0.14381355735434614
882000000 0.9519077291479784 -0.1421718487153922
888000000 0.9514813838922458 -0.14552303512222184
894000000 0.9529585517261282 -0.14724594137878125
900000000 0.9529757415438151 -0.15126609603319008
