# HZ S RI R 50
300000000 0.9867706068292798 -0.02650409853297227
306000000 0.9864449812803513 -0.027162729143651376
312000000 0.9856901642696745 -0.027010386023834
318000000 0.9860955328484459 -0.028029880749714783
324000000 0.9860305323364817 -0.028848023295790275
330000000 0.9855549894851785 -0.029559013114055014
336000000 0.9851338842162007 -0.030758103355342424
342000000 0.9843844671311176 -0.03113345092570553
348000000 0.9846989989076473 -0.0320352201946035
354000000 0.9845098887992568 -0.03277839838784494
360000000 0.9842764389291325 -0.033768685627709356
366000000 0.9845730003151677 -0.03522850033633162
372000000 0.9841240374483354 -0.03595876400693546
378000000 0.9838072539484694 -0.037053701687078576
384000000 0.9836237005029774 -0.03785680782940014
390000000 0.9852189001367772 -0.03948382245980623
396000000 0.9830554482799161 -0.040329680778164734
402000000 0.9812406697905054 -0.038756367817862535
408000000 0.982281716057204 -0.042389317823023125
414000000 0.9823706951314565 -0.04390670992528001
420000000 0.9822946799708312 -0.045098745778200555
426000000 0.9814314439645141 -0.04576580924531317
432000000 0.981577190046821 -0.04739289558029197
438000000 0.9810201977214996 -0.04823195751923258
444000000 0.9807650327546393 -0.049507961106513204
450000000 0.9812742623470772 -0.0507931127872
456000000 0.9805276950436304 -0.051296410595250745
462000000 0.9804172439574341 -0.05250517212763861
468000000 0.9741668447051056 -0.05188815258854367
474000000 0.980700500990013 -0.0539938081331737
480000000 0.9805948593940794 -0.05455907165669178
486000000 0.9797909054620506 -0.05492327580590557
492000000 0.9816358482515567 -0.056523877860749146
498000000 0.9801878537555991 -0.056690960088735906
504000000 0.9802075724318859 -0.05789055804695724
510000000 0.9813522585695037 -0.05726212563144471
516000000 0.9808100564620232 -0.058709021141152465
522000000 0.9804249622608459 -0.05797032670235362
528000000 0.9804306246467089 -0.0593538925281662
534000000 0.9811179345545284 -0.059747527798495785
540000000 0.9809885196495192 -0.05929663275693568
546000000 0.9800851182529826 -0.05981918086507507
552000000 0.9804327974223621 -0.0598440195228505
558000000 0.9806834052123822 -0.06057756232465672
564000000 0.980288945999706 -0.06006652430061236
570000000 0.9808370813293408 -0.06037734417014803
576000000 0.9805696036344447 -0.060597019817486684
582000000 0.9808833598066767 -0.06078723908382462
588000000 0.9805726441212962 -0.06072036986751982
594000000 0.9816875542857845 -0.06088450912578592
600000000 0.9807546101503843 -0.06044834163136934
606000000 0.9802247650094293 -0.061040481378657835
612000000 0.9804707269499275 -0.06141250831903272
618000000 0.9802900618409114 -0.06161958337586294
624000000 0.9806896911254599 -0.06232631208400864
630000000 0.98015457574073 -0.06292857869832834
636000000 0.9807318466297208 -0.06318955220688297
642000000 0.9802882149996504 -0.0636195933879119
648000000 0.9802707822356773 -0.06386486181376028
654000000 0.9801649758432749 -0.06456462996753246
660000000 0.9798827824524339 -0.06475970104795384
666000000 0.9803159535202497 -0.06505662197099922
672000000 0.9803734950038089 -0.0662510112020318
678000000 0.9807206836196094 -0.06643272602186726
684000000 0.9785511115974804 -0.0675631872551208
690000000 0.9792139925901239 -0.06847979176027877
696000000 0.980092502636804 -0.06863815303796532
702000000 0.9785888251642847 -0.06792389756497791
708000000 0.9778876773259615 -0.07085083337656957
714000000 0.9787844552633187 -0.07251984175760894
720000000 0.9772376134381879 -0.07360953942398651
726000000 0.976474663560612 -0.07541341919309102
732000000 0.975854966464487 -0.07705887566736214
738000000 0.9758221163915278 -0.07857324295633215
744000000 0.9746283346965225 -0.08095198035887259
750000000 0.9744771167870726 -0.08210164517873515
756000000 0.973576412373994 -0.08452765658105955
762000000 0.9725334255965459 -0.08675068742289657
768000000 0.9718480204491265 -0.08835213823572184
774000000 0.970735355003029 -0.091044541453702
780000000 0.9695052041352322 -0.09389200359180404
786000000 0.9693461491381747 -0.09549846456327447
792000000 0.9681844894749588 -0.09772494182553321
798000000 0.9677488121380289 -0.10024183614426287
804000000 0.9660731320457618 -0.10195273831754455
810000000 0.9660252576796801 -0.10440418394004708
816000000 0.9650390961072093 -0.10714001080765423
822000000 0.9640408063069484 -0.11058800719843731
828000000 0.9640368744654123 -0.11190462147486041
834000000 0.9619937557244036 -0.11520581229605424
840000000 0.9617168831622122 -0.11711136285985861
846000000 0.9619273108682892 -0.1191275242099495
852000000 0.9610426028232324 -0.12254779345488837
858000000 0.9599386682534183 -0.12465303111956026
864000000 0.9597760107446094 -0.12628901556155034
870000000 0.9612511004501921 -0.12907123693308287
876000000 0.9574589011398429 -0.1303237080132706
882000000 0.9560885770771662 -0.12876225791979293
888000000 0.9602475879379052 -0.130648039590483
894000000 0.9601542349547475 -0.13611071082797327
900000000 0.9593906424408593 -0.13836833227482145
