# HZ S RI R 50
300000000 0.9799119720761005 -0.03736253957703463
306000000 0.9792170521652076 -0.037986991204730675
312000000 0.9778944018732586 -0.03723439246185206
318000000 0.9788730007864092 -0.03914274501973352
324000000 0.9786708483888651 -0.04030415688363232
330000000 0.9781393769707104 -0.04125723915268043
336000000 0.9778315303320788 -0.04222792961792612
342000000 0.9765055500166658 -0.042526117076262686
348000000 0.9775088284960968 -0.04397642932259535
354000000 0.9771840271564468 -0.04507475072934944
360000000 0.9766827455072274 -0.046397964142172926
366000000 0.9767098881658577 -0.047334606582402655
372000000 0.9762447974107633 -0.048623220846932796
378000000 0.9758748714932526 -0.04995818774746663
384000000 0.9756817759441995 -0.051237956489922125
390000000 0.9774867889119652 -0.052894962643173636
396000000 0.9752061459999463 -0.05366268188722453
402000000 0.9732886355324983 -0.05129659416832219
408000000 0.9743679744227358 -0.056310285939958564
414000000 0.9736971581528532 -0.05728788081869715
420000000 0.9742077007073758 -0.059397198805521405
426000000 0.9732043774796668 -0.05962056228026558
432000000 0.9728767663664774 -0.0615216515218871
438000000 0.972421903178175 -0.06295547392571506
444000000 0.972153549664259 -0.06382409370983336
450000000 0.9719873807951535 -0.06564822482719057
456000000 0.9717092393354552 -0.06647622387341934
462000000 0.9713780117772902 -0.06754803397561471
468000000 0.9714742253997568 -0.0702676576173818
474000000 0.9713996254967343 -0.06964515531562018
480000000 0.9710295492891095 -0.0714299223358045
486000000 0.9711480894835247 -0.07236271459892171
492000000 0.9712592370399071 -0.07133118045068883
498000000 0.9709610556670107 -0.07315367186892459
504000000 0.9714583130785982 -0.07400125469031003
510000000 0.9709107429725594 -0.07383285607291926
516000000 0.9714807019697431 -0.07532441215798404
522000000 0.971506899600839 -0.07510824396859431
528000000 0.9710820035539931 -0.07620855610173757
534000000 0.9716181541987545 -0.07678438866777203
540000000 0.9713838059788898 -0.07746951382376624
546000000 0.970871988097492 -0.07693247692252926
552000000 0.9712078808126308 -0.07752704160676509
558000000 0.9709094388813164 -0.07736668950667806
564000000 0.9702484663745587 -0.07810418523250072
570000000 0.9710837803779754 -0.07829896628632757
576000000 0.970538031348016 -0.07823542834560485
582000000 0.9705012978589429 -0.07898002667567564
588000000 0.9698626489057457 -0.07874560297884647
594000000 0.9693403614688624 -0.07892622716002407
600000000 0.970132157157266 -0.07907585346630518
606000000 0.969805410637626 -0.07959796830262213
612000000 0.9697024366115726 -0.08013452170416485
618000000 0.9697873641971856 -0.08073086342704211
624000000 0.9684135093637487 -0.08188215320853791
630000000 0.9687257395642115 -0.08244678830337097
636000000 0.9693255589449844 -0.08283810139972571
642000000 0.9693103749587515 -0.08309995332402086
648000000 0.9693312447936239 -0.08446291967815278
654000000 0.9682480521380824 -0.08245089801638714
660000000 0.9684937769063776 -0.08448609225498975
666000000 0.9688951623857117 -0.08676802621589215
672000000 0.9681109679699959 -0.08695435358124909
678000000 0.9683103121128648 -0.08815113984166718
684000000 0.9647345915257589 -0.08703379444968057
690000000 0.9671710835821795 -0.08885343699457428
696000000 0.9680009671376644 -0.09024529798827365
702000000 0.9664769937664106 -0.09302315064242897
708000000 0.965302732024524 -0.0929755866798662
714000000 0.9657397552509719 -0.09376569018645542
720000000 0.9644863140528153 -0.09526578637030964
726000000 0.9638242795032872 -0.09705654158629805
732000000 0.9627757418774745 -0.09932850413140218
738000000 0.962658949065312 -0.10074290825854286
744000000 0.9613538002700736 -0.10323615669966135
750000000 0.9611299034939726 -0.1045683693005779
756000000 0.9594254101098639 -0.10696272410366957
762000000 0.9584244479900849 -0.10946188838398083
768000000 0.9575685411320253 -0.11196829831187405
774000000 0.9564125388807052 -0.11420756816846704
780000000 0.956230318774766 -0.11530192516396885
786000000 0.9548157566076673 -0.11893864488161009
792000000 0.9533671755877189 -0.12181158076740868
798000000 0.9526720586103499 -0.12408700623063243
804000000 0.950598336612714 -0.12679729306044252
810000000 0.950385585663185 -0.12906900022469078
816000000 0.9495033881827367 -0.1320209894891058
822000000 0.9477887799663575 -0.13564219619368345
828000000 0.9482720151320775 -0.13767216787326014
834000000 0.945842474246189 -0.13988480430570147
840000000 0.9454595722484173 -0.1424522131802446
846000000 0.9445768502171673 -0.1460162787329639
852000000 0.9442223318792411 -0.14742211956996126
858000000 0.9450509285894718 -0.15144141944213357
864000000 0.9423314757405697 -0.15348062121962636
870000000 0.9438044984208143 -0.15795276857143387
876000000 0.9423626320456725 -0.15546763155178783
882000000 0.9389602856207802 -0.15670881522843094
888000000 0.9426613929302184 -0.1599118956138868
894000000 0.9426667179047702 -0.1613158198759617
900000000 0.9452155242557939 -0.16306474035040028
