# HZ S RI R 50
300000000 1.0006219193791175 -0.005847836574212744
306000000 1.0003343012157107 -0.0061598123669033365
312000000 1.0000360886276944 -0.005816268242585694
318000000 0.9997190308941459 -0.006115530331235602
324000000 1.0000420995314647 -0.005971302570087113
330000000 1.0009326409614363 -0.007355001817614516
336000000 0.9999806498274341 -0.007086244296381695
342000000 0.99923210197662 -0.007288059874021223
348000000 0.9997233296191177 -0.007945005073516788
354000000 0.9996609981689606 -0.008757579038969327
360000000 0.9998164262906222 -0.009407051864734527
366000000 0.9999683501133254 -0.01008300911377209
372000000 0.9994384928254509 -0.01047455547504289
378000000 0.9993434280832979 -0.011489325533693565
384000000 0.9992319116008636 -0.012339773779120548
390000000 1.001540766426123 -0.013428502259332063
396000000 0.9989874112531321 -0.013711270658988431
402000000 0.9976957659443847 -0.012516434080430036
408000000 0.9986461593245237 -0.015479530690196674
414000000 0.9983179761533765 -0.01614800243632787
420000000 0.9990707552485656 -0.0170088134652042
426000000 0.9986968605623967 -0.017547115259824025
432000000 0.9985545676534894 -0.0183281891750019
438000000 0.9984122464654743 -0.019238374430151573
444000000 0.998305289479484 -0.020091969838346352
450000000 0.9984935072207278 -0.02031790822827387
456000000 0.9975307922909152 -0.021265047854793162
462000000 0.9980320499987824 -0.021840049785279692
468000000 0.9933552503016361 -0.018970248722204795
474000000 0.9989033841503763 -0.02300782686902768
480000000 0.9979255447881685 -0.023619543328505747
486000000 0.997746840425391 -0.023712289286322998
492000000 0.9996268249433394 -0.023951078431970082
498000000 0.9982176307211396 -0.024465858363782983
504000000 0.998927035104351 -0.025118045990272276
510000000 0.9993090179412838 -0.024087105008430997
516000000 0.9998285257517564 -0.025369536322162378
522000000 0.9985041181731461 -0.025235623842157322
528000000 0.9998652604461259 -0.02556930747628104
534000000 0.9996203430906523 -0.026170769336561903
540000000 0.9997986974841155 -0.025892754467518084
546000000 1.0001695699022577 -0.025200408726422017
552000000 0.9997158595934773 -0.025582126594050923
558000000 0.9991759261933544 -0.024935194102726935
564000000 0.9996365011565613 -0.024865905224056524
570000000 1.0003147583354484 -0.02516189586811752
576000000 1.0004050512168612 -0.0246670539644435
582000000 1.000534804129576 -0.025135821861697126
588000000 1.0003821868205525 -0.02445816576790335
594000000 1.0001420602026923 -0.024330114128031932
600000000 1.0010199688173431 -0.02376233158016768
606000000 1.0004142628889319 -0.023793337632436778
612000000 1.0007880155746562 -0.0239756710835116
618000000 1.0010935272621952 -0.023751896547289163
624000000 1.0001367233488023 -0.023035748323898698
630000000 1.0006221504512336 -0.02362343688956584
636000000 1.0011927410327348 -0.02376610787223578
642000000 1.000955198931952 -0.024257429206620516
648000000 1.0018828759151834 -0.0234987729800465
654000000 1.0024057688705499 -0.023078462754792316
660000000 1.0015925139233406 -0.024019317885843498
666000000 1.001580862312873 -0.024570486805861668
672000000 1.0021178886340627 -0.025163282810220514
678000000 1.0019502912463807 -0.025608932912506512
684000000 0.9999813835945132 -0.026499227396045585
690000000 1.0012277496218023 -0.02635367663118335
696000000 1.0013436255251789 -0.02652649152927911
702000000 1.0009249363830173 -0.026932603497869124
708000000 1.0007627266694212 -0.02804293241321669
714000000 1.0009751774666782 -0.03003576994608377
720000000 1.0009525505712362 -0.029991353188207132
726000000 1.0000574058169571 -0.031242681498748884
732000000 0.9998336702676195 -0.03343989707852147
738000000 1.0001780970650804 -0.034810129442897984
744000000 0.9997364623372531 -0.03612736482700821
750000000 0.9987641464207376 -0.036680778663470213
756000000 0.9984667262891445 -0.03892452763459853
762000000 0.9980144899365188 -0.04082247231882244
768000000 0.9977281618055339 -0.042311906630052944
774000000 0.9973964602836646 -0.04480727518110198
780000000 0.998087236164008 -0.04548822322685902
786000000 0.9964848077647195 -0.04791108407915212
792000000 0.9960083533799665 -0.049933940663228746
798000000 0.9955197076839897 -0.05176849649305539
804000000 0.9945025647436778 -0.05377349549652735
810000000 0.9945369191862374 -0.05614448075972399
816000000 0.9935939443939847 -0.05755576426728075
822000000 0.993449335846881 -0.06058900850406658
828000000 0.9938543256131968 -0.061465476439531916
834000000 0.9927198634070432 -0.06417013993596199
840000000 0.9930571251462629 -0.06544756171778998
846000000 0.9910535797675347 -0.06717677570741286
852000000 0.9909718614948686 -0.07028620646275578
858000000 0.9925717265390576 -0.07015366217120567
864000000 0.9910700005122697 -0.07440903830641422
870000000 0.9914694319676135 -0.07703353598486366
876000000 0.9898863148234476 -0.07565220369728032
882000000 0.9885979726034546 -0.07548310131906863
888000000 0.9897102301988037 -0.07872113110776416
894000000 0.9911069221703301 -0.08243824186926078
900000000 0.9901468732682233 -0.08168383021623565
