# HZ S RI R 50
300000000 1.0000853726920538 -0.010417018542853393
306000000 0.9996226767921075 -0.01054636451383419
312000000 0.9987066953749415 -0.010944338566524863
318000000 0.9991924866120857 -0.011440001384908997
324000000 0.998868795079589 -0.011342724865176014
330000000 0.9997310781774726 -0.011807203620168795
336000000 0.9986301956131318 -0.012951980074792244
342000000 0.9977150845438152 -0.013387478057437348
348000000 0.9984669029325173 -0.013753139917813923
354000000 0.9979102471664826 -0.014501034655113154
360000000 0.9982873289474492 -0.015180115559713542
366000000 0.9983814502254575 -0.015585436722043024
372000000 0.9981999089884539 -0.015988975904404918
378000000 0.997685827534795 -0.017269327131457488
384000000 0.9974602883944369 -0.01782493862427206
390000000 0.997887603022817 -0.01968651767502659
396000000 0.9974593818831693 -0.019833825325548372
402000000 0.9950856298167736 -0.01722809722420823
408000000 0.9968919657982445 -0.021272624989349884
414000000 0.996900856382958 -0.022659233023721935
420000000 0.997071987242083 -0.02353016739676558
426000000 0.9962893775135967 -0.0237782348162759
432000000 0.9964862776933342 -0.02524854453968596
438000000 0.9958016566773152 -0.0257818887901061
444000000 0.9964855493262569 -0.026985649828672565
450000000 0.9959135702871941 -0.02736932739544308
456000000 0.995237661414493 -0.027889614538671854
462000000 0.9966009593365264 -0.028270645877270295
468000000 0.994185680941607 -0.03229607173929846
474000000 0.9957940676965271 -0.029821714621029092
480000000 0.9959815598558193 -0.030705859253541655
486000000 0.995655985245531 -0.030632862761378776
492000000 0.9969612955704467 -0.031122446091469937
498000000 0.9956351221803912 -0.030668977819057548
504000000 0.9965667406654599 -0.031536707943875336
510000000 0.9965532363200937 -0.03144132394278688
516000000 0.9974966034180462 -0.031678724273150626
522000000 0.9970001341672967 -0.03190342481993679
528000000 0.9971548347372051 -0.03230540204198874
534000000 0.9968731156229829 -0.03309183266851959
540000000 0.9972262456784212 -0.03273388031843303
546000000 0.9969898734958901 -0.03217028965141505
552000000 0.9972061181291973 -0.031526143618084174
558000000 0.9974817385570014 -0.03159893924563839
564000000 0.9970053459204368 -0.031599724024637
570000000 0.9980386083357642 -0.03089881300922778
576000000 0.9980042205254651 -0.03077568549178818
582000000 0.9979865348249055 -0.03106737441458223
588000000 0.9976077179822164 -0.03017851304973771
594000000 0.9974415345013818 -0.0306561007439097
600000000 0.998514385567309 -0.029749581752629515
606000000 0.9981888336248942 -0.029748960857768448
612000000 0.9984609387412167 -0.02967773196147971
618000000 0.9986949414742279 -0.029476961171921553
624000000 0.999196846454696 -0.029648550060096056
630000000 0.9981910762472871 -0.02998891708652241
636000000 0.9990615724742373 -0.029674155550789727
642000000 0.9982254401107746 -0.03010937738362175
648000000 0.9993695127297302 -0.02977971664093907
654000000 0.9986266342645697 -0.030578698421513416
660000000 0.9984937243596125 -0.030338400663373347
666000000 0.9998090085231087 -0.03122193029044154
672000000 0.9987083179300512 -0.0315945139388158
678000000 0.9990260100850896 -0.03170467573093245
684000000 0.9971968873039251 -0.032200607339425244
690000000 0.9989517673308373 -0.03320997981487773
696000000 0.99951587147693 -0.03332220912591261
702000000 0.9999297838606319 -0.03386096461400623
708000000 0.9983707235085234 -0.03445825516201286
714000000 0.9988199597813792 -0.035950757611306575
720000000 0.9972993977972833 -0.036636298825962
726000000 0.9975815222608002 -0.03843184231116077
732000000 0.9965458165619447 -0.03953080411995301
738000000 0.9971764798698587 -0.04128694963797655
744000000 0.9964311230478997 -0.04197535751137351
750000000 0.9963641020510137 -0.04357381278698666
756000000 0.9950619505525766 -0.04566280955584618
762000000 0.9954884245291411 -0.046817510526145356
768000000 0.9946452229568109 -0.048933134872395596
774000000 0.9939767735910847 -0.0506881318181236
780000000 0.9932876249513767 -0.053080512738623055
786000000 0.9929691966234487 -0.0542630773213611
792000000 0.992132929294087 -0.05641038256026636
798000000 0.991783674823179 -0.05848530394435549
804000000 0.9905483489662562 -0.060108755775815224
810000000 0.9907797750176759 -0.06284279136197227
816000000 0.989745436198551 -0.06471521979031765
822000000 0.9887665929779624 -0.0675598001160855
828000000 0.9899255590663596 -0.06817810788346497
834000000 0.9879182923507144 -0.07047697648404877
840000000 0.9883623955466757 -0.07275427381902536
846000000 0.98763875374989 -0.0759159704901044
852000000 0.9871715626346609 -0.07828645941268463
858000000 0.9883115466500972 -0.08039338293077114
864000000 0.9850367294201107 -0.08235301197854504
870000000 0.9877305828589517 -0.08489343115331559
876000000 0.9866869105878693 -0.08358832003126176
882000000 0.9848420720540721 -0.0849437466262224
888000000 0.9864660595077918 -0.08491193274264476
894000000 0.9877509760990901 -0.08773554069639232
900000000 0.9851329353713962 -0.0901905337517876
