# HZ S RI R 50
300000000 0.9998928569922187 -0.010070964889764337
306000000 0.9989648768016133 -0.009472980344944103
312000000 0.9986102303822622 -0.010122192368310004
318000000 0.9989281767872955 -0.009715125237183389
324000000 0.9987155386752807 -0.010316075797979794
330000000 0.9994582880919765 -0.011496610296336751
336000000 0.9989038736346606 -0.011718952613705215
342000000 0.9976370038474401 -0.011697460276899163
348000000 0.9983198259861973 -0.012563316088715002
354000000 0.998222536952157 -0.013042462854168206
360000000 0.9985998532272636 -0.01413751437606553
366000000 0.998733096383043 -0.014070364405274653
372000000 0.9980973439580487 -0.01512660157264525
378000000 0.9978704623558255 -0.016138229370757543
384000000 0.9977394590652693 -0.016449706776395408
390000000 0.9996856589468903 -0.01807032559115113
396000000 0.9973352558435833 -0.018567756259452246
402000000 0.9950693093244127 -0.01603658681177914
408000000 0.9968426697376838 -0.02003411625939256
414000000 0.9967289184168702 -0.02122662544063604
420000000 0.9971995159387863 -0.02180172830175746
426000000 0.9964614454034294 -0.022642407617394885
432000000 0.9971836977842329 -0.023500645734162006
438000000 0.9963422057395452 -0.024053302780438872
444000000 0.9964716635711838 -0.02502177517227974
450000000 0.9969057759100394 -0.025755036296314267
456000000 0.9958303467853596 -0.02579566990565211
462000000 0.9965475946408908 -0.026765125532806334
468000000 0.9873416192046024 -0.026830103588609044
474000000 0.9966971972165919 -0.02778943314886434
480000000 0.9971702782863973 -0.02975389647113535
486000000 0.9956192693399463 -0.028218650206627865
492000000 0.9971133157240654 -0.028875051551525584
498000000 0.9959538505422526 -0.029628597034735603
504000000 0.9956646337039803 -0.03031184864471371
510000000 0.9966852535179449 -0.029437584295301907
516000000 0.9972112501998831 -0.031227250275986912
522000000 0.9971604568304764 -0.03011121110738912
528000000 0.9977347653693073 -0.030777797035597056
534000000 0.9972967271025239 -0.03101440459390925
540000000 0.9975385997962875 -0.030381375360336305
546000000 0.9977713212564087 -0.030792909302031886
552000000 0.9976687259891276 -0.03045012346887505
558000000 0.9978156724931515 -0.03032574626920847
564000000 0.9969471182168573 -0.030296179481403458
570000000 0.9978817883021593 -0.029684938899800416
576000000 0.9982014710194708 -0.030004606798979053
582000000 0.9985268935289107 -0.029707654126097605
588000000 0.9982835705345776 -0.029256046404743538
594000000 0.9979710967193555 -0.028952279934605443
600000000 0.998764315100778 -0.028826058973307214
606000000 0.9985729665597035 -0.028737869649717904
612000000 0.998809525964729 -0.028770291761083384
618000000 0.9988229151375717 -0.02876547746668318
624000000 0.999338957618088 -0.02955192769779551
630000000 0.9987873930314016 -0.028813551660264836
636000000 0.9993775004103517 -0.02884212708536062
642000000 0.9991832427629513 -0.029346933341682403
648000000 0.999736236307802 -0.03017543699999288
654000000 1.0007593859418291 -0.030411507670919973
660000000 0.9986632612791002 -0.028416119575693302
666000000 0.9994665701714484 -0.0299753951001918
672000000 0.9992579563647278 -0.030222728358089652
678000000 1.0006922154727813 -0.030558013062538546
684000000 0.9984637472343185 -0.03164558671338351
690000000 0.9994425741713594 -0.03145752807913909
696000000 1.0000338180430077 -0.03216228388542901
702000000 0.9997530645718102 -0.034164691429749074
708000000 0.9987561705127436 -0.03348424106438962
714000000 0.9987167147582987 -0.035069193302996134
720000000 0.997783604204727 -0.03524596540673459
726000000 0.9982403290113357 -0.03573997842904193
732000000 0.9981928767828276 -0.03846103639990784
738000000 0.9979330047390264 -0.03941708464861123
744000000 0.9971882186666757 -0.04149850366054202
750000000 0.9970581607232427 -0.04185399919602581
756000000 0.9960137740320246 -0.04421968490698089
762000000 0.9956929779705935 -0.04664742443333616
768000000 0.9953007578903719 -0.04800336034779337
774000000 0.9946243484413949 -0.0502846051541209
780000000 0.9952948075365421 -0.05039857238582415
786000000 0.993676072840402 -0.05354918815071429
792000000 0.9931549124312474 -0.05556425291536791
798000000 0.9924823796748125 -0.05752356551623991
804000000 0.9915525965417682 -0.059666354637350025
810000000 0.9914796440941477 -0.06178684139148029
816000000 0.9908308255542786 -0.06397598415218804
822000000 0.9900335247332591 -0.06622227601039432
828000000 0.9898605981951633 -0.06732617844658784
834000000 0.9894739785655895 -0.07054565255941586
840000000 0.9885504559452932 -0.07141197599162011
846000000 0.9881716210779019 -0.07337184323749067
852000000 0.9885147285696221 -0.07636237506827918
858000000 0.9880262851147752 -0.07826121321067438
864000000 0.9872644828023328 -0.08192690411946746
870000000 0.9882923978229259 -0.08262700288706844
876000000 0.9867757120704098 -0.08325934164984826
882000000 0.9861283326381207 -0.0834163392691658
888000000 0.9853544234184718 -0.08499903349811383
894000000 0.9875188929804825 -0.08914859060813676
900000000 0.9847709901167181 -0.09035721076095717
