# HZ S RI R 50
300000000 0.9989106516779177 -0.011099549427749668
306000000 0.9979380076436516 -0.01129972156427405
312000000 0.9984481782801027 -0.01168050821746479
318000000 0.9976753665736166 -0.011558117543807991
324000000 0.9975123174223437 -0.012084657521788673
330000000 0.9984421685779338 -0.01260453495557179
336000000 0.9975544155873602 -0.013361421764198
342000000 0.9964065299373126 -0.013331036955755762
348000000 0.9971454102806039 -0.013841740394038073
354000000 0.9968463009524493 -0.014448508905044802
360000000 0.9968683219048217 -0.015070936765547443
366000000 0.9969981563993011 -0.016280699190461677
372000000 0.9969582405614055 -0.016892983525941502
378000000 0.9967907637439396 -0.0179874769486782
384000000 0.9965806009057744 -0.01868472384718642
390000000 0.9985793367153092 -0.01859432064302096
396000000 0.9959263478695295 -0.020401361809760578
402000000 0.9939780642925945 -0.0177024392736804
408000000 0.9955699964422736 -0.021767894407226807
414000000 0.9957910575647223 -0.02301820561423302
420000000 0.9960427062488646 -0.023929955805929302
426000000 0.9951236254713527 -0.02443623299221201
432000000 0.9956869203415152 -0.025512876452590524
438000000 0.9946429968813082 -0.026479007794123776
444000000 0.994873676902495 -0.02675392930096098
450000000 0.9955346843937535 -0.02777393949006618
456000000 0.9947475645695376 -0.02847173436980904
462000000 0.9946637861902901 -0.029115485889059836
468000000 0.9962777834755605 -0.0292323792587502
474000000 0.9951050391453337 -0.03041778970946827
480000000 0.995177684645739 -0.031804959081222446
486000000 0.9954736849155079 -0.031163051267259198
492000000 0.996115159087133 -0.03222871530536792
498000000 0.9950987698840759 -0.0322448578032905
504000000 0.9950106529229937 -0.03376410334279998
510000000 0.9959670368923836 -0.033249526733074165
516000000 0.9953626589767405 -0.03470506579190413
522000000 0.9953417698856188 -0.033992328086600444
528000000 0.9962402112238938 -0.033988632899854446
534000000 0.9961943389206713 -0.03442716520204592
540000000 0.995988779910215 -0.03385598797294274
546000000 0.9961911211320356 -0.034897034929421394
552000000 0.9956139872814656 -0.03408429427381716
558000000 0.9961549042637089 -0.03385271619981543
564000000 0.9955217765390452 -0.033970646512228184
570000000 0.996427956435329 -0.03391231553652692
576000000 0.9962205629656888 -0.033636982234552304
582000000 0.9965555333361605 -0.03440006822665606
588000000 0.9964913530024344 -0.03375690540519297
594000000 0.9954066967252356 -0.03303845233941521
600000000 0.9968896091611907 -0.033176196519500205
606000000 0.996441867945078 -0.033224763762045265
612000000 0.9964610581613845 -0.0333536106337989
618000000 0.9969580875015447 -0.03360333951136839
624000000 0.9969571505000606 -0.03240791631425426
630000000 0.9965108970668249 -0.03358127934051649
636000000 0.9971144715970615 -0.0339222573441868
642000000 0.996929292533655 -0.033821863947901036
648000000 0.9978974184322946 -0.0339288120053041
654000000 0.9956817729879913 -0.032089769144312996
660000000 0.997297849080606 -0.033601117478806994
666000000 0.9978625562801026 -0.03412811756559619
672000000 0.9971410329510753 -0.03482080829558094
678000000 0.9980418487065136 -0.035369874735332395
684000000 0.9948204618649944 -0.03494164670886416
690000000 0.9969782813737114 -0.035810249335152006
696000000 0.9970029927608892 -0.03691455726978924
702000000 0.9938218237791372 -0.03610175046084771
708000000 0.9959455659350648 -0.03826107960689752
714000000 0.9964100360262731 -0.03968265284447604
720000000 0.99564204810664 -0.04011810878442229
726000000 0.9954212869756602 -0.04186571898051072
732000000 0.9947056838431961 -0.04370215510031791
738000000 0.9944320610977004 -0.04402381510273954
744000000 0.9942240355784582 -0.04668606864486085
750000000 0.9942271933321261 -0.04735383697695132
756000000 0.9931871906816311 -0.04954719967364777
762000000 0.9931712403048376 -0.05158658513987341
768000000 0.9922825916442037 -0.053639400585726534
774000000 0.9915111165054766 -0.055493420330739625
780000000 0.9917821227473512 -0.05478514521530729
786000000 0.9905501467735068 -0.05916279186368222
792000000 0.9900730947906735 -0.06106808459078182
798000000 0.9897513733852272 -0.06327411440734346
804000000 0.9880468517133059 -0.06559271145702344
810000000 0.9880342580447663 -0.0669340909392687
816000000 0.9871601348887511 -0.07034903715430219
822000000 0.9874034232500261 -0.07173667166347207
828000000 0.9884752725072401 -0.07413396402833433
834000000 0.9864577636682113 -0.0763393710074559
840000000 0.9859355303087277 -0.07735352628502253
846000000 0.9853726614959777 -0.07991390083822777
852000000 0.9842770199533841 -0.08154157364728236
858000000 0.9859194335958128 -0.08381481097975418
864000000 0.9843922259310128 -0.0861324234038017
870000000 0.9857090873730385 -0.08969745946651127
876000000 0.983139401714083 -0.08616040167700467
882000000 0.9821848277884094 -0.08782989572779758
888000000 0.9845139187846071 -0.0901890445641067
894000000 0.9837817733979285 -0.09353571837792618
900000000 0.9850751757993874 -0.09914355322640207
