# HZ S RI R 50
300000000 0.981296478906827 -0.03516659664338963
306000000 0.9794489038730511 -0.0355997493448655
312000000 0.9801926050188529 -0.03569973595582305
318000000 0.9792614205788708 -0.03675520762387385
324000000 0.9792689573877883 -0.037459542395606484
330000000 0.9796800234946369 -0.03828131408288853
336000000 0.9789312995337371 -0.038777240743752536
342000000 0.9778329940286004 -0.03986298146604124
348000000 0.9786277289631686 -0.04082431797762604
354000000 0.978235844759671 -0.04201658173625328
360000000 0.9781618383102636 -0.043410436507672824
366000000 0.9778027736110207 -0.04439150857035791
372000000 0.977297388235322 -0.04557360524863136
378000000 0.9771522082507541 -0.04685664723325401
384000000 0.9766630641833856 -0.04790903963055819
390000000 0.9768600745583155 -0.04716358629403678
396000000 0.9760742059359252 -0.050520532866378025
402000000 0.9741817307673494 -0.04847793156918482
408000000 0.9753947392977483 -0.05268024151327572
414000000 0.9749163183394148 -0.05410131625491843
420000000 0.9751045842626281 -0.05525448205126179
426000000 0.9741213982991674 -0.05659983702758116
432000000 0.9743672108600429 -0.057770646639281074
438000000 0.973504137183635 -0.05973780312385764
444000000 0.9740622179324153 -0.06071821814198385
450000000 0.9736675749816135 -0.061961338063179036
456000000 0.9726259933691765 -0.06309590708329463
462000000 0.9733373930337795 -0.06348532505942
468000000 0.9669318942309236 -0.06783136042842669
474000000 0.9722072627409191 -0.06512959614658662
480000000 0.9731201647987906 -0.06640670506222981
486000000 0.9718890251039058 -0.06666798671145296
492000000 0.9732000764926351 -0.06813396446468079
498000000 0.9724755872501493 -0.06862184449665831
504000000 0.9729989258418745 -0.06987154590648005
510000000 0.9725571514767746 -0.06931962239469935
516000000 0.9734956019000975 -0.07125684718311034
522000000 0.9725475319413559 -0.0708774105988529
528000000 0.9727848519349569 -0.0718847554339808
534000000 0.9733017924976597 -0.07246657827506336
540000000 0.9727028319676904 -0.07241878085270917
546000000 0.9728248386064547 -0.07321233103879
552000000 0.9728043881531077 -0.07250741396772438
558000000 0.9726989800875446 -0.07353919332355
564000000 0.9719585341766405 -0.07351772913614094
570000000 0.972827471596027 -0.07365949273730693
576000000 0.9723449685189458 -0.07420115897733756
582000000 0.9722793052152504 -0.07452942408621237
588000000 0.9717511785751379 -0.07460754390576804
594000000 0.9722281604197872 -0.0745233241023346
600000000 0.9722483528769947 -0.07460226753306073
606000000 0.971549012171466 -0.07496953720947235
612000000 0.971607099928314 -0.07545014351265521
618000000 0.971473741025476 -0.07613287723472806
624000000 0.9719469162822141 -0.07722886247997873
630000000 0.9712242530964358 -0.0773233084388026
636000000 0.9706425485950919 -0.0782042767170841
642000000 0.97099710594425 -0.0791484126638689
648000000 0.9715602036580382 -0.07922756741612735
654000000 0.971007677508673 -0.08065157855635312
660000000 0.9706200998167898 -0.08097831492290776
666000000 0.9706041102786555 -0.08106067405281388
672000000 0.97061730852574 -0.08189531795436875
678000000 0.9716930883337459 -0.0821439828274258
684000000 0.9696527394118785 -0.08140531485839511
690000000 0.9700009699298211 -0.08439370131889919
696000000 0.9701097315104961 -0.08508050218555713
702000000 0.9696331136979844 -0.08690049703404865
708000000 0.9681721443403123 -0.0870346685288183
714000000 0.9683708908228363 -0.08895467823494936
720000000 0.9671530800036172 -0.09049866941227157
726000000 0.9660921744420167 -0.09143759475565286
732000000 0.965571317833207 -0.09350459925894927
738000000 0.9652188488007319 -0.0957801591477002
744000000 0.9643037146059753 -0.09719722935468784
750000000 0.9630077060228508 -0.09923539540172667
756000000 0.9628599972588767 -0.10184138414601002
762000000 0.9616777828594812 -0.10395522283001943
768000000 0.9606288391605876 -0.10576801651718712
774000000 0.959549947043438 -0.10872165389184738
780000000 0.9593112462150456 -0.11132770196064522
786000000 0.9577765896894771 -0.11257320553940535
792000000 0.9566687292530193 -0.11511551655559642
798000000 0.9555739977084009 -0.11838532836687779
804000000 0.9540947867100797 -0.12053054522008237
810000000 0.9536809992455431 -0.12347892101498656
816000000 0.9532067869576887 -0.12518023446924817
822000000 0.9514255637620149 -0.1289608330569008
828000000 0.9516512327087641 -0.13115808683100438
834000000 0.9498693142809047 -0.13342557074835923
840000000 0.949023814967051 -0.1351053696081577
846000000 0.9485980879291614 -0.1381529463787695
852000000 0.9471244099151316 -0.14191983329578997
858000000 0.9467982233774308 -0.14400297833511946
864000000 0.9451362584483891 -0.14587131235880552
870000000 0.9479518534414441 -0.14910915935056382
876000000 0.9473812040007806 -0.15008202068003718
882000000 0.9479740305603518 -0.14928616572396156
888000000 0.9459469686500357 -0.15161905896381864
894000000 0.945747205384919 -0.15578368409107957
900000000 0.9469496664032147 -0.15642492254996718
