# HZ S RI R 50
300000000 0.9909085237102684 -0.028815890494334487
306000000 0.990862838622265 -0.029106111251929932
312000000 0.9915959452433024 -0.028397697282011698
318000000 0.9910643836131001 -0.029036785140978884
324000000 0.9908817679916211 -0.028854560191018966
330000000 0.9906139616546522 -0.028570679786537746
336000000 0.9908970309574175 -0.028895426073249138
342000000 0.9911586163051989 -0.028689051784025046
348000000 0.9913758878389096 -0.028565319034734426
354000000 0.9914479710771529 -0.02875592801140734
360000000 0.9913096872015317 -0.029056653688473384
366000000 0.9911252625092611 -0.028770599038605443
372000000 0.9918392560291659 -0.028791058357920743
378000000 0.9917487269923276 -0.02880767308242883
384000000 0.9916456741480116 -0.029057505611331025
390000000 0.9913804201609383 -0.029458332063226813
396000000 0.9917124696465768 -0.029544676403936355
402000000 0.9914647504581705 -0.02961477842790622
408000000 0.9917174298275463 -0.030154615931935642
414000000 0.9918762438132301 -0.03039004894278386
420000000 0.9917244522160872 -0.03167533054614476
426000000 0.9913602398370646 -0.031158570081729564
432000000 0.9922983392964857 -0.03165253084203582
438000000 0.9915173512567518 -0.032009016275083756
444000000 0.9913670787287245 -0.03290083085016643
450000000 0.9911756866180981 -0.03307873739216975
456000000 0.9907062803802891 -0.03459145653723283
462000000 0.9901626959549618 -0.03430923367573993
468000000 0.9868786736639411 -0.025556326454429228
474000000 0.9904867371457706 -0.03585444843558626
480000000 0.9909011670967465 -0.0359728767403648
486000000 0.9895844122379134 -0.03735463126407261
492000000 0.9889308474617162 -0.0383211899446082
498000000 0.9902364368730502 -0.03956377187323902
504000000 0.9899265247759502 -0.04008093620185083
510000000 0.9890660326523112 -0.04103625903160305
516000000 0.9905170497335575 -0.04154990268455451
522000000 0.989111270200534 -0.04338080011890958
528000000 0.9889413916964931 -0.044194255467131634
534000000 0.9892259004871361 -0.04528776005560512
540000000 0.9895818373873828 -0.0463568861561514
546000000 0.9876641043785932 -0.0479227914730326
552000000 0.9885665942321592 -0.048758191033615644
558000000 0.9879258857350194 -0.04961307135912
564000000 0.9881047907313869 -0.05085151124682493
570000000 0.9876735791847131 -0.0519858674107165
576000000 0.9868762936179574 -0.052864062444334704
582000000 0.9866790018878702 -0.05439660410754966
588000000 0.9859907268122478 -0.05579747917234932
594000000 0.985735097818399 -0.05631974154481599
600000000 0.9865358128011678 -0.05794930310473343
606000000 0.985640060115561 -0.058872797826054236
612000000 0.9855813365912043 -0.060314803871124326
618000000 0.9851607034215221 -0.06231997269106242
624000000 0.9865838405381456 -0.0627467222813897
630000000 0.9846229789532861 -0.0658145586542107
636000000 0.9839066900641589 -0.06683534071933707
642000000 0.9841298324316062 -0.06792684856357993
648000000 0.9841251046286436 -0.06982360834581278
654000000 0.9843733689557381 -0.06896481244210585
660000000 0.9837180304745736 -0.0725405276740495
666000000 0.9836963921357075 -0.07225863143000026
672000000 0.9838073564937979 -0.072949967318509
678000000 0.9841068837270674 -0.07436562580529896
684000000 0.9836546784566484 -0.07595327866515328
690000000 0.9830592248407706 -0.07566292492251588
696000000 0.9836978371836593 -0.07715879776980769
702000000 0.9839876051417072 -0.07928227430799306
708000000 0.9826716745537482 -0.07950846198739095
714000000 0.9814739495591993 -0.07915521964210623
720000000 0.9818031134609205 -0.08045612001747257
726000000 0.9813147200746601 -0.08050217629822998
732000000 0.9809336679009386 -0.08131331463392401
738000000 0.9814551297542765 -0.08235455239774611
744000000 0.9804026481958739 -0.0834917467846026
750000000 0.9800191132016014 -0.08478454916328972
756000000 0.9793165033448377 -0.08480992518758641
762000000 0.9787455164178717 -0.08514465722966177
768000000 0.9790812940054716 -0.08628497059720867
774000000 0.9787798847333541 -0.08694410115542073
780000000 0.9808975535749889 -0.08736670332333135
786000000 0.978730184358204 -0.08781560660486386
792000000 0.977978586868509 -0.08848888471239563
798000000 0.9781549145573102 -0.0896574899574205
804000000 0.9779246024985471 -0.08971113833305593
810000000 0.9786694103680036 -0.09037709361297364
816000000 0.9776099926709158 -0.09129530595503302
822000000 0.9776433876196434 -0.09225623131377317
828000000 0.9763143442675258 -0.09152382558608144
834000000 0.9773362954948532 -0.09433625705548815
840000000 0.9778333286877711 -0.09452869319418647
846000000 0.9774239024697237 -0.0954046235928494
852000000 0.9776438166442386 -0.096674183157277
858000000 0.978152431157142 -0.09569500045018875
864000000 0.9768289437579477 -0.09674893605823007
870000000 0.9759984502444432 -0.09773153724975145
876000000 0.977173317129758 -0.09434795532938081
882000000 0.9790873579896404 -0.09770254654691693
888000000 0.9752264412197967 -0.0971008950681882
894000000 0.9776906863397951 -0.10041054599668148
900000000 0.9804568379267379 -0.09819503676153432
