# HZ S RI R 50
300000000 0.9890520456172591 -0.03259227364785145
306000000 0.9885005710111747 -0.03305043333583159
312000000 0.9887365611140964 -0.03216131367791752
318000000 0.9886035080827267 -0.032959451265024496
324000000 0.9888775182920263 -0.03296148694036977
330000000 0.9890893526830755 -0.031766991391131774
336000000 0.9888777156399104 -0.0331838495335654
342000000 0.988981722946642 -0.03306107863756811
348000000 0.9890445607277184 -0.0327241916429749
354000000 0.989084225063402 -0.03291107778047033
360000000 0.9894541134654778 -0.03348667197375738
366000000 0.9889793261888279 -0.0331157394142827
372000000 0.9890924616945267 -0.03327925993011243
378000000 0.989265996895255 -0.033349068137938406
384000000 0.9893748612160913 -0.03363204457324566
390000000 0.990107879000724 -0.033977862526805694
396000000 0.9892142886371358 -0.03409490111945664
402000000 0.9891081538814055 -0.034318984370172535
408000000 0.989541410916958 -0.03526520219396226
414000000 0.9892737676873393 -0.035056295805526855
420000000 0.9890152714662939 -0.03627339919121931
426000000 0.9886928508030322 -0.03607562515954548
432000000 0.9894307381609518 -0.03629273922371985
438000000 0.9882206972288636 -0.03705924516717938
444000000 0.9882961657222579 -0.037882580404053345
450000000 0.988846501259093 -0.03849684061415737
456000000 0.9880165449462531 -0.03881161382364044
462000000 0.9876057711634437 -0.04006749127988136
468000000 0.9869835891797193 -0.037601787128240485
474000000 0.9877337484557589 -0.04104070713720949
480000000 0.9879912444847826 -0.041701439710576535
486000000 0.9868535484828085 -0.04329569964013605
492000000 0.9858271258840463 -0.045131697716252764
498000000 0.9874232653781952 -0.0446594953265766
504000000 0.9865353852761743 -0.04619278075082059
510000000 0.9868818158075345 -0.047477633262657734
516000000 0.9874548586790832 -0.04791787563736796
522000000 0.9872801135304873 -0.04953218036233044
528000000 0.9857007224822433 -0.050465829741104265
534000000 0.9864000392842834 -0.05104351006550337
540000000 0.9864283828735656 -0.052841622709125596
546000000 0.9856192275504952 -0.05365849262217543
552000000 0.9853877987150435 -0.05512256666643382
558000000 0.984806307820473 -0.05603029257577659
564000000 0.9851825787058676 -0.057726184724544785
570000000 0.9842410868428648 -0.058587309718163116
576000000 0.9840281328025052 -0.05954263262428921
582000000 0.9833207252351239 -0.06114265903873662
588000000 0.9828394119985295 -0.06281330530689726
594000000 0.9820583748593944 -0.06308828295230334
600000000 0.9832607401019348 -0.06499715354330612
606000000 0.9821870630673869 -0.06613356776722258
612000000 0.9819186361126524 -0.0676660869352801
618000000 0.9818165816012123 -0.0695398057613869
624000000 0.9821008182766979 -0.07167622950290645
630000000 0.981140761674348 -0.07323697678537379
636000000 0.9807332812698288 -0.07420409264039017
642000000 0.9807138487411123 -0.0758009392408742
648000000 0.9807392291442231 -0.07792031212471483
654000000 0.9806664991758847 -0.07754974938577233
660000000 0.9807020592249667 -0.07925059301344604
666000000 0.9800784436746649 -0.08070874047461848
672000000 0.9802935803624252 -0.08178340053522769
678000000 0.9807234727104581 -0.08299719669023423
684000000 0.9786555077627528 -0.08336638257546054
690000000 0.9795265867534659 -0.08401703320738542
696000000 0.9803060833888804 -0.08466640877892313
702000000 0.9804938164307015 -0.08754094560906306
708000000 0.9789864774110923 -0.08730552909633192
714000000 0.9776041605033974 -0.08809866268219711
720000000 0.9792136039587005 -0.08832203974320404
726000000 0.9779423952921744 -0.089632492985259
732000000 0.9765278462679577 -0.09001948366181102
738000000 0.9773711748780246 -0.09057008399540581
744000000 0.9765697844280131 -0.0920895417226033
750000000 0.9762855991152725 -0.0926480174251592
756000000 0.9758720127137068 -0.09285940538709904
762000000 0.9751083399860827 -0.09340495239668416
768000000 0.9748645270814925 -0.09484113546739967
774000000 0.9747893403266208 -0.0955659051562854
780000000 0.9764170923156814 -0.09609010938545536
786000000 0.9743231886280861 -0.09637553353037674
792000000 0.9737926881432317 -0.09756056169023164
798000000 0.9739069693364739 -0.09782378265876279
804000000 0.973105708935325 -0.09830702900669393
810000000 0.9739713208382345 -0.09892200372127331
816000000 0.973623370059147 -0.10062324694585442
822000000 0.9722037427171206 -0.1017696460478865
828000000 0.9716010650693391 -0.10103397457386327
834000000 0.9725651410637302 -0.1028266470391078
840000000 0.972257615445219 -0.10427716328723349
846000000 0.9720867707487278 -0.10510506630390501
852000000 0.9722646117180016 -0.10561046222327886
858000000 0.9749439956624425 -0.10484297027005193
864000000 0.9727607270707477 -0.10613275396407604
870000000 0.9712894435050922 -0.10724483231283365
876000000 0.9758326153647436 -0.10447910551635571
882000000 0.9732043971714018 -0.10528409748107768
888000000 0.9720219789250617 -0.10827121116399516
894000000 0.9727472809651515 -0.10992105996964896
900000000 0.9739870091147914 -0.10807851127926248
