# HZ S RI R 50
300000000 0.9878392847161774 -0.033611280280898874
306000000 0.9886790407797266 -0.03342397024517121
312000000 0.9878855492106771 -0.03262731621982391
318000000 0.9884209613445034 -0.033833950596685855
324000000 0.9884717430701501 -0.03322305320022866
330000000 0.9883259938961124 -0.03221359512683054
336000000 0.9882133451538536 -0.03354487588114679
342000000 0.9884550280215514 -0.03307052784901513
348000000 0.9882574198689545 -0.033201937637149403
354000000 0.9881875875187687 -0.033209789527181524
360000000 0.9881742561768496 -0.033544705489254374
366000000 0.9881309981985339 -0.033378540643697746
372000000 0.9886159495587422 -0.0338438449016841
378000000 0.988511456613052 -0.033948906911158365
384000000 0.9885104086321275 -0.03394058981158424
390000000 0.9881784117839688 -0.03443383373959883
396000000 0.9884428317498565 -0.03460434874470075
402000000 0.9885502790068813 -0.03444294929895568
408000000 0.988735710859418 -0.03539476517423805
414000000 0.9885231968576825 -0.03530133547234189
420000000 0.9884322271790568 -0.03625676505951904
426000000 0.9878788616955693 -0.03692729139739186
432000000 0.9885331092046694 -0.0374758347828949
438000000 0.9878009879069299 -0.038007742451619815
444000000 0.9881502256660486 -0.03879522580011534
450000000 0.9875964129868987 -0.03904665885310234
456000000 0.9873884399134377 -0.040024885088521645
462000000 0.9871328646571603 -0.04109463272214451
468000000 0.9789393609288178 -0.036061770683992314
474000000 0.9864570619878633 -0.04180194721482998
480000000 0.9868742673466303 -0.04243157218468226
486000000 0.986523357240063 -0.0436393073034429
492000000 0.9853979391420133 -0.04505499844729619
498000000 0.9866934365817762 -0.04538236786371169
504000000 0.985976221906711 -0.04619466592159843
510000000 0.9859335816533726 -0.04747218646036784
516000000 0.9869890133596954 -0.04892710076964016
522000000 0.9863439522378105 -0.05025071516623615
528000000 0.9841219006472247 -0.050771773188215456
534000000 0.9855692422127191 -0.05170401087070907
540000000 0.9851164362034479 -0.05304551724589194
546000000 0.9851620848494936 -0.054493714664069964
552000000 0.9847959033587312 -0.05505035420665831
558000000 0.9840836699645547 -0.056540611349155556
564000000 0.9843244632674418 -0.05715173737612572
570000000 0.9839461526288414 -0.058875550202866535
576000000 0.9830078382103211 -0.059581585228081664
582000000 0.9826918150034772 -0.06171227988546716
588000000 0.9817797228235975 -0.06288817780789852
594000000 0.981560284845712 -0.06323254094992864
600000000 0.9821311509257045 -0.06511722581019795
606000000 0.9816048894097896 -0.0662215722739285
612000000 0.9810567419058095 -0.06776836565719194
618000000 0.9804148421221109 -0.06928500328620253
624000000 0.9808471910566605 -0.07171156453592792
630000000 0.9801546723886841 -0.0731321748252068
636000000 0.9797502764540091 -0.07465593854495964
642000000 0.9801031587727742 -0.07586527456163228
648000000 0.9799482722317657 -0.07779305119372018
654000000 0.9803167466315598 -0.07821340180459291
660000000 0.979470147688146 -0.07974386148521653
666000000 0.9793993162715806 -0.08018931049322056
672000000 0.9794657892151691 -0.081930842438195
678000000 0.9794248742590136 -0.0826947927987662
684000000 0.9779171364814867 -0.08454260467469318
690000000 0.9785419356429568 -0.08391276416966374
696000000 0.9797540792904926 -0.08461628135905847
702000000 0.9806653821099061 -0.08844512816767246
708000000 0.9781519417437771 -0.08718344461343285
714000000 0.9771607249461262 -0.08776514137681393
720000000 0.9777104979373002 -0.0888318356616253
726000000 0.9768078575783676 -0.08918943062627303
732000000 0.9757680052233582 -0.08989976445659932
738000000 0.9764951730835905 -0.09010210671701654
744000000 0.9756276252180223 -0.09187712288066702
750000000 0.975349588109254 -0.09328972102040368
756000000 0.9746094711852181 -0.09333839933010339
762000000 0.9744061932410132 -0.093788234951039
768000000 0.9736519119606755 -0.09480644696242363
774000000 0.9738376213252796 -0.09566679964823242
780000000 0.9748454869843262 -0.09683995938407457
786000000 0.9734599321573857 -0.0969676267314343
792000000 0.9726255682326566 -0.09757031252231063
798000000 0.9729324221316018 -0.09822000476750875
804000000 0.9722760978627918 -0.09887251317913928
810000000 0.9728256381161953 -0.0999221199694083
816000000 0.9721152680072636 -0.10091043416663127
822000000 0.971798140229102 -0.10093354648233184
828000000 0.9721187564346516 -0.10178887145143829
834000000 0.97151086969615 -0.10278240622078504
840000000 0.971572319672175 -0.10372813178731949
846000000 0.971094724255195 -0.10467098948553812
852000000 0.9717533015970697 -0.10585986007502868
858000000 0.97252588567987 -0.10658062303000312
864000000 0.9721341423040082 -0.10591351722449903
870000000 0.9719880743367612 -0.10740577453287399
876000000 0.9721333862037995 -0.10443313439542773
882000000 0.9690771065235677 -0.10548078321892186
888000000 0.9698078351114099 -0.10850001437149918
894000000 0.9732149075229418 -0.11036104956521504
900000000 0.9724983652452536 -0.10957325362725352
