# HZ S RI R 50
300000000 0.9878276316172961 -0.03298039554445886
306000000 0.9883476802760831 -0.03282539992439109
312000000 0.9887133965635654 -0.03334697642780539
318000000 0.9883530027769872 -0.03315192229908571
324000000 0.9883566285606354 -0.03258036505519174
330000000 0.9879896661215299 -0.03208398366509452
336000000 0.988463418810725 -0.033257476954225956
342000000 0.9885873150858512 -0.03266816604391219
348000000 0.9884133441380537 -0.03276564547820764
354000000 0.9882742990889545 -0.03263378644367628
360000000 0.9880076437607392 -0.03309239465257707
366000000 0.9885376833771846 -0.03295403813488367
372000000 0.9886379832528179 -0.033534027710597776
378000000 0.9886689042909478 -0.033589005369690776
384000000 0.9887373255921387 -0.03403241929492671
390000000 0.988973034731079 -0.0333609262754763
396000000 0.9885280154520223 -0.03419649118528762
402000000 0.9885626583585484 -0.03428594440324474
408000000 0.9886463008437478 -0.03539043145611335
414000000 0.9884694055449661 -0.03522805382844114
420000000 0.9884681846771389 -0.035642055701382465
426000000 0.987933918442394 -0.03654550133842471
432000000 0.9887050703100627 -0.0366779960547979
438000000 0.9877903779618723 -0.037388796965623174
444000000 0.9877705829035414 -0.03874997264942338
450000000 0.9876930849070052 -0.0382442677472916
456000000 0.9871815495487334 -0.03909700892996173
462000000 0.987399661464795 -0.03999797563761142
468000000 0.9854535522576074 -0.03636802796253189
474000000 0.9865383396037473 -0.040977746961197166
480000000 0.9867833646243036 -0.04211503882465409
486000000 0.9865357923492823 -0.04415834066196206
492000000 0.9858945846597778 -0.04460611481745166
498000000 0.987264004399038 -0.044786789536727364
504000000 0.9864675509308479 -0.04620499306233544
510000000 0.9861990234818526 -0.04698723992660778
516000000 0.9867231744136354 -0.04790056112946227
522000000 0.9864845213817999 -0.04907146972926054
528000000 0.9844026743260856 -0.050247564587436074
534000000 0.985758990470884 -0.05193907601269675
540000000 0.9852955410266159 -0.0529392199039592
546000000 0.9844881406476833 -0.0538746610799269
552000000 0.9846040378084474 -0.055229285008396155
558000000 0.9842836139511327 -0.05605644369743408
564000000 0.9840123421940441 -0.05719646243043672
570000000 0.9836010584441531 -0.058743568202937614
576000000 0.9827296154697901 -0.06013279263258453
582000000 0.9827830632904634 -0.06124851472940774
588000000 0.9820331918976227 -0.0628603239087504
594000000 0.9826511740424368 -0.06343990524842537
600000000 0.9821544499285322 -0.06515469890612471
606000000 0.9814310597825951 -0.06620656161852594
612000000 0.9810632442771238 -0.06774205674739185
618000000 0.9808198328722438 -0.06929193410020715
624000000 0.9804241056065365 -0.06876314038118195
630000000 0.9799700027051301 -0.07341230961312525
636000000 0.9797207271647538 -0.0745361096896771
642000000 0.980435477348727 -0.07552184067948593
648000000 0.979569924489578 -0.07757496751250785
654000000 0.978906396321691 -0.07587667696967519
660000000 0.9793354731039728 -0.07889517813909704
666000000 0.9793887728815988 -0.08071770144192171
672000000 0.97971938657756 -0.08121814002232394
678000000 0.979705489198724 -0.08257695517665348
684000000 0.9783873008665575 -0.0836175474396298
690000000 0.9774946429012221 -0.0842714912643271
696000000 0.9793950735992498 -0.08442361585735593
702000000 0.9792079868254178 -0.08851026366873693
708000000 0.9772065314297295 -0.08692284615500215
714000000 0.9761001272171285 -0.08733983719330206
720000000 0.9782529238649013 -0.08792113779296712
726000000 0.9771549905756124 -0.08886489879320186
732000000 0.9762160072900008 -0.08871503983711002
738000000 0.9761286097192421 -0.089880546586272
744000000 0.9752002526599651 -0.09268114470617828
750000000 0.9758653272842158 -0.09202429827031003
756000000 0.974292087731447 -0.09264279440109743
762000000 0.9743682541515984 -0.09315524112414006
768000000 0.9737441076348656 -0.09469283385075689
774000000 0.973787769608923 -0.0951479588507821
780000000 0.9750268117578463 -0.09719286480901937
786000000 0.9732822513696869 -0.09637999400908723
792000000 0.9730081502532034 -0.09709929032917199
798000000 0.9730241677722952 -0.0975121814044627
804000000 0.9723451191925604 -0.09831138991480536
810000000 0.9728591770801167 -0.09903536570780216
816000000 0.971715855517218 -0.10081107248984564
822000000 0.9719549501982958 -0.10118981416843108
828000000 0.9710893904000995 -0.10004988224995709
834000000 0.9721549568915885 -0.10292148394244573
840000000 0.9724967580403608 -0.1028033383445395
846000000 0.9713391258560466 -0.10374183787304471
852000000 0.9716669569846557 -0.10614346906881965
858000000 0.9726294137271889 -0.10397175797507492
864000000 0.9724992500878692 -0.10675490105496808
870000000 0.973229958632306 -0.10751069080493006
876000000 0.9735911878739661 -0.10509334292604586
882000000 0.9690746577599735 -0.10599269998238435
888000000 0.9712576828073181 -0.10649604364143167
894000000 0.9708199414063841 -0.10945963850000703
900000000 0.9720245270910186 -0.10876213955887667
