# HZ S RI R 50
300000000 0.9786395362943098 -0.04696829073520492
306000000 0.9781278010834119 -0.04784666018430707
312000000 0.9782904336961534 -0.04801689556475308
318000000 0.9780245390951637 -0.04821152393063651
324000000 0.9780100721036087 -0.04837785699118009
330000000 0.9776733134652064 -0.04803289493741684
336000000 0.9776333558675653 -0.04947002042558382
342000000 0.978034029820676 -0.04928693411929723
348000000 0.9778526745743477 -0.049359883319387066
354000000 0.9778064830052972 -0.04976206613938167
360000000 0.9771512757754929 -0.05005592387684559
366000000 0.977234173707338 -0.050514521469448175
372000000 0.9775894281898541 -0.050789657579358105
378000000 0.977578441355593 -0.05127584066979335
384000000 0.9775068375976127 -0.051693903184218
390000000 0.9779820556685614 -0.05266103066656648
396000000 0.9774446055636179 -0.052812951272618085
402000000 0.9767711127513602 -0.05349312193395728
408000000 0.9768332353675109 -0.054052897055905394
414000000 0.9767919841192378 -0.054422227688846615
420000000 0.9764974069482617 -0.0556602119765044
426000000 0.9763727705988531 -0.055875884127056574
432000000 0.9764855134040742 -0.05740508099838407
438000000 0.9758250879997242 -0.05765039852657802
444000000 0.9755627986461279 -0.058893629121023805
450000000 0.9753935514381223 -0.05960101005063094
456000000 0.9749847353041564 -0.06073339316035036
462000000 0.9743570140015632 -0.06171392716564995
468000000 0.9755243267595668 -0.06231283417514332
474000000 0.9740369109303172 -0.06332677355690675
480000000 0.9741662971019788 -0.06371092796195298
486000000 0.9733658121871055 -0.06660158023333984
492000000 0.9721360287117423 -0.06711683997769607
498000000 0.9741234335155714 -0.06788619617281179
504000000 0.9735312707931951 -0.06950551264926165
510000000 0.972558103670604 -0.07100087897046395
516000000 0.9738265367477067 -0.0709303862053493
522000000 0.9727135485594514 -0.07329282878596477
528000000 0.9710433189711698 -0.07421451671394218
534000000 0.9720070095776702 -0.07494599150818788
540000000 0.9715280021758013 -0.07694594125656924
546000000 0.9701647022870646 -0.07803675495681447
552000000 0.9706866657117533 -0.07977859614342903
558000000 0.9701847179049933 -0.08061847237640661
564000000 0.9696239802360884 -0.08230752115497728
570000000 0.969264663223406 -0.0837642647843398
576000000 0.9681817214925115 -0.08455328111212217
582000000 0.9676860226925608 -0.08690649812533598
588000000 0.9668990638933515 -0.08824760747753642
594000000 0.9675283565726797 -0.08890617865229433
600000000 0.9666237439178973 -0.0908355574903531
606000000 0.9657879419762435 -0.09224079130521864
612000000 0.9654127340794909 -0.09401218754418782
618000000 0.9653153522955407 -0.09594795951920448
624000000 0.9650847678852779 -0.0976722741590784
630000000 0.9640171956215104 -0.09962281590842481
636000000 0.9635066893660255 -0.10144397504326969
642000000 0.9642579888359235 -0.10295325816108471
648000000 0.9633114482302492 -0.10533876942835443
654000000 0.9630465039712262 -0.10639021662845136
660000000 0.9628520124599601 -0.10752304466422721
666000000 0.9631021075652334 -0.10823849468158184
672000000 0.9627424474010964 -0.10903966274741055
678000000 0.9631196190074243 -0.11140950253794508
684000000 0.9627528895930529 -0.11092585240121655
690000000 0.9613327295131731 -0.11346383058283882
696000000 0.9626310673780493 -0.11286867816933671
702000000 0.9603665921065685 -0.11712032895050548
708000000 0.960940749311397 -0.11609044900536959
714000000 0.9593763916867878 -0.11649610829810834
720000000 0.9600072911513703 -0.11763857694818419
726000000 0.9593431420128331 -0.11891931237258703
732000000 0.9579012120477693 -0.11955191368963655
738000000 0.9579795232354698 -0.12058236164388755
744000000 0.9574461862355543 -0.12184296349347774
750000000 0.9564981223365464 -0.12309190557265977
756000000 0.9557091767049827 -0.12356732894914567
762000000 0.9550747957614536 -0.12412113948996832
768000000 0.9545661564524488 -0.12573092464417077
774000000 0.9539907372734041 -0.12694037512379658
780000000 0.9554583959134305 -0.12978849966874006
786000000 0.9535085437481703 -0.12863484276522566
792000000 0.9524312794494703 -0.12978992951785118
798000000 0.9523398191163158 -0.1306481989778795
804000000 0.9516539665719346 -0.13123401904931586
810000000 0.9521514825458932 -0.1324454588408196
816000000 0.9504117365227843 -0.13415346888385507
822000000 0.9505430090302066 -0.13487033965777678
828000000 0.9501280351118329 -0.13490586598286453
834000000 0.9490739028235642 -0.13761057450232808
840000000 0.9493701863695151 -0.13806113552732746
846000000 0.9482062361335347 -0.13972285567536938
852000000 0.9488230596225492 -0.14193896018603758
858000000 0.950644730780252 -0.14221446624364426
864000000 0.9496169457987732 -0.1423112472841261
870000000 0.9490535404263094 -0.1441350047409487
876000000 0.9500271704853026 -0.14286743305842797
882000000 0.946886509450138 -0.14073002928558437
888000000 0.9478195571176006 -0.14482593234536098
894000000 0.9497839816802081 -0.14646704897594548
900000000 0.948622323149777 -0.14575171239920148
