# HZ S RI R 50
300000000 0.982610978889344 -0.042184897400753874
306000000 0.9828377825725849 -0.04229080884669806
312000000 0.983331863489766 -0.041930375389956885
318000000 0.9826811695501824 -0.043104079208449525
324000000 0.9829328826073568 -0.04293996940597614
330000000 0.9830470336893584 -0.04238272581110514
336000000 0.9822449763479667 -0.0434220296745681
342000000 0.9825762903520447 -0.043622488314695486
348000000 0.9830775923308146 -0.04349168018180432
354000000 0.9824618427455991 -0.04390847818242743
360000000 0.9823608271317685 -0.04451508001369083
366000000 0.9820959870733144 -0.04461590086239702
372000000 0.9823692356753625 -0.04470234501811343
378000000 0.9825665521964172 -0.04517307893682304
384000000 0.9825617080911162 -0.04542564400918749
390000000 0.9831449631405267 -0.04582661231331941
396000000 0.9823182561650428 -0.046339443965905565
402000000 0.9818453646013275 -0.046161869091354
408000000 0.9823988578713461 -0.04718279759612115
414000000 0.9823701827124598 -0.047887914726650445
420000000 0.98181218503006 -0.04870377743514483
426000000 0.981689180086689 -0.04927805185457508
432000000 0.9824111004704466 -0.050025468861125404
438000000 0.981192198350233 -0.05051095782033456
444000000 0.9808965692704302 -0.05203008190038445
450000000 0.9811745313892994 -0.05190980866564694
456000000 0.9802148464468956 -0.05254830915565247
462000000 0.980157661936936 -0.054108455135171214
468000000 0.9813622841321872 -0.050479684553588165
474000000 0.9798867270889297 -0.05514686304578608
480000000 0.9791397291925311 -0.05641287434400019
486000000 0.979939770996303 -0.0574591893377923
492000000 0.978563731612266 -0.059400213223186456
498000000 0.9798851994959867 -0.0599211604005902
504000000 0.9788694006637545 -0.06077243151853115
510000000 0.9783332883047479 -0.06224224792193503
516000000 0.9795774565088962 -0.06258916410392375
522000000 0.9791592115347958 -0.06449966381159114
528000000 0.9773918985548206 -0.06587756139106495
534000000 0.9783491765135378 -0.06688512169110289
540000000 0.9774693683700479 -0.0683880498003896
546000000 0.976271683419047 -0.0701412062880989
552000000 0.9770408948785545 -0.07082916457585926
558000000 0.9761685088595828 -0.07215473743764843
564000000 0.9762241292686273 -0.07345007833837378
570000000 0.9756901872613625 -0.07463795672505683
576000000 0.9749223686729515 -0.07592986038847631
582000000 0.9739748882204303 -0.07775252182239516
588000000 0.9736095844506844 -0.07928424247018126
594000000 0.9746268055752806 -0.07964470972538612
600000000 0.9735885750431503 -0.0818113529112508
606000000 0.9727563732109985 -0.08293557526473747
612000000 0.9722786256526472 -0.08470545192312816
618000000 0.97166539598818 -0.08670379273008175
624000000 0.9708286093156286 -0.08818731540749183
630000000 0.9707440888163872 -0.09060552300844797
636000000 0.9702947823069584 -0.09184483322744348
642000000 0.9709366790333456 -0.0933153630530578
648000000 0.9705649067265407 -0.09583868960208851
654000000 0.969445502360684 -0.09559193224524751
660000000 0.9704205139603156 -0.0972986369799196
666000000 0.969931987433495 -0.09916660806424298
672000000 0.9698152404174954 -0.09926065992650501
678000000 0.9697472448466289 -0.10126545077781154
684000000 0.9703656949423447 -0.10055889719891534
690000000 0.9685156673792805 -0.10314564541057687
696000000 0.9695985932263247 -0.10366950326769156
702000000 0.9665214499995072 -0.10601803871294244
708000000 0.9678842954440955 -0.10585593795510732
714000000 0.966592972407709 -0.10649576862638259
720000000 0.9679738385284995 -0.10796291193882941
726000000 0.9664617399893598 -0.1088968300546587
732000000 0.9657044663008705 -0.10924105798070144
738000000 0.9656147337133271 -0.11040563692079233
744000000 0.9645667133882675 -0.112456233104556
750000000 0.9648549958471426 -0.1122266933637649
756000000 0.9637112876580841 -0.11321966302540894
762000000 0.963056899226802 -0.11383517591296446
768000000 0.9624459605441206 -0.11503241834201891
774000000 0.9622220633549374 -0.11662550843941977
780000000 0.9641133532306133 -0.11796536928436285
786000000 0.9615260657721294 -0.11769342552542975
792000000 0.9610248659633859 -0.11859245615337975
798000000 0.9608122252247517 -0.11954490273156966
804000000 0.9597344246376565 -0.12066459027337509
810000000 0.9604568838499384 -0.12161632329174801
816000000 0.9596257857811893 -0.12248594344903309
822000000 0.9586739314762587 -0.12381806095952105
828000000 0.958503136027611 -0.1242930335027346
834000000 0.9585532746520928 -0.12555096091800108
840000000 0.9583077402398945 -0.12691349603050733
846000000 0.9579338281636809 -0.12757583772032177
852000000 0.9584511846065485 -0.12887355206211057
858000000 0.9604368176965197 -0.13045012608436923
864000000 0.959453249947744 -0.1314733559258881
870000000 0.9586427471227675 -0.1309055974070234
876000000 0.9574705796582944 -0.1295828473250151
882000000 0.9581799777919222 -0.129035609480312
888000000 0.9567544771249202 -0.13292841244786469
894000000 0.9595337807615555 -0.1357739939659819
900000000 0.9598538939110202 -0.133156718016332
