# HZ S RI R 50
300000000 0.992177847667924 -0.027404236720427383
306000000 0.9918591724283199 -0.026965670007923218
312000000 0.9903937318003181 -0.026759471194230503
318000000 0.9921496541552155 -0.027103060657690994
324000000 0.9922212038713252 -0.026659468228044853
330000000 0.9925764890129971 -0.02524592549033798
336000000 0.9922632385855537 -0.027321592388301653
342000000 0.9924022049726713 -0.026609861376519307
348000000 0.9922942551269797 -0.026183196585114095
354000000 0.9923271659311905 -0.026396065058601124
360000000 0.9921995607633551 -0.026422279461581488
366000000 0.9922056106323874 -0.02634607463883855
372000000 0.9926408154377926 -0.026716591709891938
378000000 0.9927507385174656 -0.02654000716307815
384000000 0.9929862940798047 -0.026742052160820644
390000000 0.993002350859649 -0.027659213959004697
396000000 0.9928060461293803 -0.0269155116741354
402000000 0.9926467787743628 -0.026531602503061285
408000000 0.9930892319023785 -0.027626683784305703
414000000 0.9928321502150261 -0.027449605724209125
420000000 0.9928336835499783 -0.02797318909770768
426000000 0.9920949935370995 -0.028407833923692297
432000000 0.9932949013044392 -0.029256338394852602
438000000 0.9921817811081939 -0.02927045687128977
444000000 0.9919192398655271 -0.030318052876349446
450000000 0.9921924697404174 -0.030455233920391622
456000000 0.9917757248513026 -0.030830689764285997
462000000 0.9914241317194741 -0.0319561135524674
468000000 0.9903018753077699 -0.02409598770845306
474000000 0.9908318345709172 -0.03313507692081042
480000000 0.9917257558042762 -0.03311182512773943
486000000 0.9912176034668317 -0.03467190418472571
492000000 0.9905761837994053 -0.03601971029779023
498000000 0.9913923708266433 -0.036557797386594315
504000000 0.9911619013084777 -0.03776374205668691
510000000 0.9901975146323456 -0.038456561716195936
516000000 0.991580843501809 -0.03867828326543331
522000000 0.9903972960672976 -0.0406817231874043
528000000 0.9893301754083255 -0.04080444026330556
534000000 0.990471683250566 -0.04158892157922317
540000000 0.9903090023525506 -0.04393349713735767
546000000 0.9892162160648895 -0.04520774080829951
552000000 0.9896616924003866 -0.045330427550138594
558000000 0.9889000869681008 -0.046493504804300326
564000000 0.9897923989554808 -0.04766438728292236
570000000 0.9886811829835292 -0.04907073637003726
576000000 0.9884991862189126 -0.04948401243801489
582000000 0.9880661048888084 -0.0514602806096459
588000000 0.9876149304721212 -0.05246388567249669
594000000 0.9871394256624616 -0.053120617221556955
600000000 0.9874172372304191 -0.0545285376735747
606000000 0.9871660217764977 -0.05556609110701662
612000000 0.9868247314304622 -0.05731964847430808
618000000 0.9865122997575569 -0.05888069891301475
624000000 0.9870262857038449 -0.059731781191035116
630000000 0.9860854885253321 -0.06225764125179206
636000000 0.9859902693623507 -0.06321970825484782
642000000 0.9855991160030269 -0.06434978856847103
648000000 0.9858452178235825 -0.06668849262428966
654000000 0.9861624076437626 -0.0643579505722744
660000000 0.9857465180331324 -0.0675015166790193
666000000 0.9855978350930648 -0.06897471546797208
672000000 0.9857174324776609 -0.06998360055895947
678000000 0.9859706249234336 -0.07132446902557618
684000000 0.9862163656287897 -0.07079578427490432
690000000 0.9844242496933856 -0.0723353992378669
696000000 0.9857867480867664 -0.07247005156736017
702000000 0.9849986019322664 -0.07796350822491117
708000000 0.9844346147657578 -0.0749697964902917
714000000 0.9825903511102733 -0.07564126922492895
720000000 0.9833738466688771 -0.07640767202239483
726000000 0.9838205102446289 -0.07615901428867963
732000000 0.9829741745246753 -0.0774336094754228
738000000 0.9831358106241554 -0.07764186711448104
744000000 0.9821265401124659 -0.07974502989346866
750000000 0.9819342968116125 -0.0800177279011188
756000000 0.9811236433639914 -0.0805128954023493
762000000 0.9807789696934529 -0.08081561310018358
768000000 0.9811149811886846 -0.08170065238559297
774000000 0.9808778440039112 -0.08256361839034825
780000000 0.981750950604693 -0.08301802582201168
786000000 0.9806487117812196 -0.08348632280298934
792000000 0.9800199923183629 -0.08438318083316469
798000000 0.9802991128720927 -0.08497632507736845
804000000 0.9802287347884476 -0.08515622141733163
810000000 0.9799832796506601 -0.08615589176198252
816000000 0.9798193743168407 -0.08661577087659496
822000000 0.9799420877066114 -0.08714596831600396
828000000 0.9794743908894128 -0.08732065208823704
834000000 0.9791524812600693 -0.08919328091945414
840000000 0.9793144161448565 -0.08979713342225745
846000000 0.9787495052257432 -0.0897316986346263
852000000 0.9798467927815215 -0.09121811479789965
858000000 0.9814065124747318 -0.09145988612992287
864000000 0.9795782173501959 -0.09075908311001088
870000000 0.9796551740965823 -0.09111541736150747
876000000 0.9769509251054808 -0.08950460447686087
882000000 0.9786648117816348 -0.08925769937215065
888000000 0.9784251686577922 -0.09321050711989276
894000000 0.9809131182479921 -0.09553327360684719
900000000 0.981045585331639 -0.09425558271077555
