# HZ S RI R 50
300000000 0.9879714889122698 -0.03345268037530703
306000000 0.9875747471266524 -0.03363254797402976
312000000 0.9874575054325619 -0.033209775246166404
318000000 0.9880827069687478 -0.03368094379229744
324000000 0.9880376524927307 -0.03363063058979988
330000000 0.9881250124465991 -0.03274284160261333
336000000 0.9874560990862409 -0.033602698162558155
342000000 0.9879154458266683 -0.03348590013644834
348000000 0.9880699092504615 -0.033642310018467056
354000000 0.9878977337827523 -0.03359532598769855
360000000 0.9883492517510825 -0.03406649821982949
366000000 0.9883817706509205 -0.033854551198720946
372000000 0.9883637006348905 -0.03436411757948303
378000000 0.9884993944022326 -0.03435050099348271
384000000 0.9882776610893396 -0.0344664354959938
390000000 0.988758654598657 -0.034696163020080814
396000000 0.9882509770637025 -0.03519222848507438
402000000 0.9880487368203715 -0.03470797127382146
408000000 0.9885654919242914 -0.035840575733930506
414000000 0.9885008292491798 -0.03581573334027932
420000000 0.9880595979265016 -0.037292612173077666
426000000 0.9879477774079728 -0.0372057262178297
432000000 0.988649105547607 -0.03787630236097764
438000000 0.9877802792775567 -0.03787478159285965
444000000 0.9871602350215137 -0.038995779677164846
450000000 0.9875567160756423 -0.03975072259946248
456000000 0.9868771068366532 -0.039965115998707806
462000000 0.9870444471575828 -0.04081955965392555
468000000 0.9882299142608959 -0.03925724597259423
474000000 0.9864068911158267 -0.04204524743615522
480000000 0.9869021354249309 -0.043462732770396355
486000000 0.9857775581517922 -0.04448531618386037
492000000 0.9851445217988097 -0.045812477545469237
498000000 0.9861241804312133 -0.046237424646202556
504000000 0.9856160213844497 -0.04696159417497945
510000000 0.9854902527243801 -0.04801987632440422
516000000 0.9869245752112568 -0.05006071130428255
522000000 0.985570047844505 -0.05049380560906451
528000000 0.9841347101849943 -0.05133619503218197
534000000 0.9855273206409572 -0.052011998959153594
540000000 0.9847469129371625 -0.053864942241338504
546000000 0.9835832269566986 -0.05541770129760629
552000000 0.9841699932648568 -0.05555039137709043
558000000 0.9837075649169587 -0.057379663056098366
564000000 0.9837191680960132 -0.05828973095613185
570000000 0.9829748095117498 -0.05960105348480514
576000000 0.9825442516579105 -0.06092462526557373
582000000 0.9823713923943825 -0.06249699025355558
588000000 0.9813214312327244 -0.06366161840007017
594000000 0.9828821354877222 -0.06453982292621309
600000000 0.9815033258579088 -0.06582121110021197
606000000 0.981184107620782 -0.06715609021104127
612000000 0.980647839871986 -0.06882642074461191
618000000 0.9800896342191885 -0.07049750676319609
624000000 0.9802995762266405 -0.07201998427986121
630000000 0.9793764986051505 -0.07411029789062133
636000000 0.9792530976424363 -0.07556738063463538
642000000 0.9793632713528292 -0.07701493828107514
648000000 0.9791601898380567 -0.07915137147290663
654000000 0.9786975291366972 -0.07934953291424061
660000000 0.9788905249356886 -0.08089819079240916
666000000 0.9788413589023083 -0.08177652975023189
672000000 0.9783722930005783 -0.08275234148860511
678000000 0.979252244829516 -0.08418676442442609
684000000 0.9776825808141527 -0.08469403417079796
690000000 0.9781807256153984 -0.08551523193713625
696000000 0.9791779226282172 -0.0859434375073576
702000000 0.9785201053820369 -0.08750434303427157
708000000 0.9780235939963905 -0.08826434166763153
714000000 0.9758033610814394 -0.0875366747240945
720000000 0.9772821952167235 -0.08916849071513332
726000000 0.9773737002968105 -0.08991821511811439
732000000 0.9749142692016418 -0.09088040603170836
738000000 0.9764869993852342 -0.09158650831117562
744000000 0.9751240947303698 -0.09335070196362616
750000000 0.9748383763652401 -0.09412175516611597
756000000 0.9739872758533636 -0.09457660409347673
762000000 0.9737436029333956 -0.09490728831337322
768000000 0.9730435009957227 -0.09617838939293079
774000000 0.9731132600728932 -0.09701917164031319
780000000 0.9750121283086325 -0.09651012516710449
786000000 0.9724548835934833 -0.09817948078197632
792000000 0.9718963683405744 -0.09880829466140567
798000000 0.9722163239465802 -0.09954072984234325
804000000 0.9715323332055343 -0.09997096004364536
810000000 0.9720976945584994 -0.10099434760356127
816000000 0.9710284910159543 -0.10200364184849925
822000000 0.9707611890190334 -0.10295011229446643
828000000 0.970796350063196 -0.1032141852060205
834000000 0.9702529409910038 -0.1046650509694421
840000000 0.9715451416864768 -0.10568304405504714
846000000 0.9700548148509807 -0.10602264874023619
852000000 0.9704947840995859 -0.10679944789220522
858000000 0.9716293631947686 -0.10774044337249261
864000000 0.9720344419932879 -0.10809077448673363
870000000 0.9714184588567888 -0.10899665497330295
876000000 0.9712062967360204 -0.10658951364745145
882000000 0.9709895269095574 -0.10914298874280358
888000000 0.970198684258629 -0.11052420815556711
894000000 0.9719637407246735 -0.11240445275056013
900000000 0.9717308272343059 -0.10951817904647211
