# HZ S RI R 50
300000000 0.9873742080262036 -0.037125411362881666
306000000 0.9875217140565159 -0.03748903337124706
312000000 0.9884733030470426 -0.03828443451894632
318000000 0.9872077589313638 -0.03756984360203465
324000000 0.9879238747993602 -0.03749523609699766
330000000 0.9879724864880605 -0.03751715590802266
336000000 0.9869216140861324 -0.03782185094800183
342000000 0.9873451389721578 -0.03799155428767432
348000000 0.9875232449716675 -0.03781380182716923
354000000 0.9873246738089791 -0.03773871615727337
360000000 0.9873742347351123 -0.03822724162122631
366000000 0.9875252235562898 -0.03791050367742788
372000000 0.9875001082791293 -0.03844827265008713
378000000 0.9875278644986882 -0.03862241398500717
384000000 0.9875740808684861 -0.03874443364782425
390000000 0.9872781098139509 -0.039721717501551644
396000000 0.9874309596417558 -0.039300027847799936
402000000 0.9877287763348515 -0.040804947031345296
408000000 0.9873441574847858 -0.040355070572876316
414000000 0.9870620622507389 -0.040675416411354186
420000000 0.9871519511246288 -0.04145857879034069
426000000 0.9865333758162371 -0.041914055377460076
432000000 0.9874633628143775 -0.04248407278239081
438000000 0.9865534818051271 -0.043123900698278025
444000000 0.9860367474130434 -0.04392208535807222
450000000 0.9864448107655309 -0.04418942316111863
456000000 0.9858003096930991 -0.045227992468405406
462000000 0.9852124131445532 -0.046233053217004626
468000000 0.9868867425288395 -0.03994298463688758
474000000 0.9853300323231077 -0.04697000192612627
480000000 0.9852375073377283 -0.04866944993446668
486000000 0.9845376547145341 -0.04984960960307346
492000000 0.9837203106219606 -0.05087484446701698
498000000 0.9849837569718167 -0.05130791410136919
504000000 0.9839937308901963 -0.0525719272878947
510000000 0.9838622281571783 -0.053500053458365164
516000000 0.9847961541069088 -0.05454799984222842
522000000 0.9843687937148431 -0.055818519718186306
528000000 0.9828680333499461 -0.05617458502200287
534000000 0.9835601469468759 -0.05741048199110796
540000000 0.9836556028164776 -0.059431000541923296
546000000 0.9823669551955984 -0.06059669983863888
552000000 0.9824089052577089 -0.06131489072266338
558000000 0.981424884448157 -0.06304946381630824
564000000 0.9814577027062209 -0.06346741381047233
570000000 0.981127481849595 -0.06508843151574022
576000000 0.9802904524815773 -0.06605312700310277
582000000 0.9799034281594372 -0.06785367035125416
588000000 0.9796009745915073 -0.06924607933752512
594000000 0.9798911365566612 -0.07005779553457663
600000000 0.9796779810709882 -0.07138073462040895
606000000 0.9786510527516934 -0.07286558427254922
612000000 0.9783657016704441 -0.07446472377972543
618000000 0.9777074010165552 -0.07631443690884361
624000000 0.9773368169061195 -0.0773422580563391
630000000 0.9767685964936965 -0.08017232690191607
636000000 0.9767278155310576 -0.08173319552543376
642000000 0.9770025170485124 -0.08241835046778512
648000000 0.9761101252377938 -0.08464850451539922
654000000 0.9769833449937321 -0.08478897166545458
660000000 0.9769976895814609 -0.08609653330327702
666000000 0.9768718604922024 -0.08769926473596215
672000000 0.9761019605125136 -0.08897759745723768
678000000 0.976561270923359 -0.08998466017009203
684000000 0.976121857414097 -0.09074270952356261
690000000 0.975708736433557 -0.09153743177028524
696000000 0.9762194447770484 -0.09206148544263365
702000000 0.9728733136820396 -0.09555451850557392
708000000 0.9744607926167158 -0.09472158166728231
714000000 0.9732157773423338 -0.09460557700698777
720000000 0.9739041951463112 -0.09541402213298515
726000000 0.973955375116173 -0.0966372697439339
732000000 0.9726260252440646 -0.09714997684305672
738000000 0.9726000087952933 -0.09796968869651627
744000000 0.971783862360625 -0.09973661379420533
750000000 0.9711092372403988 -0.09990573417687
756000000 0.9703272105779875 -0.1005187817362952
762000000 0.969670085246643 -0.10195262753121563
768000000 0.9694478549831649 -0.10255623495116055
774000000 0.9696713156171164 -0.10349764806498148
780000000 0.9712500628218688 -0.10497885637764366
786000000 0.9688872910426753 -0.10451023482189041
792000000 0.9684339543243821 -0.10520019844462755
798000000 0.9682121591112021 -0.10644704728179641
804000000 0.9679359612437047 -0.10687194495085191
810000000 0.9677709993595512 -0.10700844933435713
816000000 0.9672222273272386 -0.10878228523748741
822000000 0.9670173691953362 -0.10916616644164776
828000000 0.9659955493175552 -0.10875332991563477
834000000 0.9666295383652489 -0.112140701471037
840000000 0.9656752970459674 -0.11123396343669661
846000000 0.9655701185379141 -0.11346776894380507
852000000 0.9660530657867666 -0.11465356787737263
858000000 0.967141531538581 -0.11238251694749918
864000000 0.9678803745317027 -0.11559477024293031
870000000 0.9653717355623886 -0.11653260206172171
876000000 0.9677726861161149 -0.11384893523564887
882000000 0.966363478480405 -0.1163766855303385
888000000 0.965832253003621 -0.11704579530512851
894000000 0.9664714441828075 -0.11886444798175055
900000000 0.9676510321983024 -0.11819694008801539
