# HZ S RI R 50
300000000 0.9851997844631493 -0.03693263392209452
306000000 0.9853130394165502 -0.03733881034464979
312000000 0.9848963244138592 -0.03826959684435855
318000000 0.9850625050113336 -0.03807827238071276
324000000 0.9851795710182281 -0.037937703269259174
330000000 0.9851229554277674 -0.03662279798694105
336000000 0.9852727007883592 -0.03802341805641237
342000000 0.9853542447655509 -0.03784223219327247
348000000 0.9854700767243921 -0.037857458369415675
354000000 0.9849139979176744 -0.038047075015076155
360000000 0.9852262606699003 -0.03801573255049809
366000000 0.9848798541083019 -0.038752132869067764
372000000 0.9854620163828057 -0.03875642190276041
378000000 0.9851282111186941 -0.03920041646524835
384000000 0.9849240928823153 -0.03910608375876002
390000000 0.9853639608631048 -0.038972829961131446
396000000 0.9850843741635754 -0.03995521815754942
402000000 0.9847092048259316 -0.03969649916959453
408000000 0.9850932687489933 -0.04133160237793068
414000000 0.9847876470991158 -0.04114872080675245
420000000 0.9848799199178622 -0.04208887200341284
426000000 0.9848471203481437 -0.042216368714990384
432000000 0.9847145152316589 -0.0434791596511964
438000000 0.9840043231950613 -0.04410149865985486
444000000 0.9838504737297438 -0.04456001932907984
450000000 0.9841155076926257 -0.04499218682317311
456000000 0.983598945736319 -0.04557617290324797
462000000 0.9833430427031784 -0.04668598860754797
468000000 0.985563585491526 -0.040222992445682726
474000000 0.9830220023261944 -0.048113395890595996
480000000 0.9836443546670807 -0.04831067361439162
486000000 0.9825363608563022 -0.05005405987202066
492000000 0.9820656029557938 -0.0514739774970571
498000000 0.9822043148837614 -0.05196267860390608
504000000 0.9824007892045407 -0.05359517697490939
510000000 0.9814032733823119 -0.054268261662490054
516000000 0.9828284815470795 -0.05469660385204237
522000000 0.9824559971274156 -0.05696577442870849
528000000 0.9804915917691926 -0.05790738334435803
534000000 0.9823792374040641 -0.05828921963400567
540000000 0.9813827671198445 -0.06022017669039595
546000000 0.9793420779067318 -0.061674973213859785
552000000 0.9804500117441245 -0.06277584902578787
558000000 0.979992475881192 -0.06376026877169884
564000000 0.9795347725462427 -0.06481674021603807
570000000 0.9795068636182902 -0.06626549800673563
576000000 0.978396960681558 -0.06711585149367125
582000000 0.978047796918944 -0.06899655708414215
588000000 0.9776447448754948 -0.0705027364909808
594000000 0.9771417059697175 -0.07111134450519704
600000000 0.9778023201132285 -0.07246842990374844
606000000 0.9768209889296572 -0.07403915831355
612000000 0.9765044888001555 -0.07575385366823172
618000000 0.9762591995831501 -0.07718106933247271
624000000 0.9765759627979917 -0.0785653316413843
630000000 0.9747943283234838 -0.08067212579766493
636000000 0.9749031462253913 -0.08222053651647528
642000000 0.9750518575122127 -0.08374692585624148
648000000 0.9750510771677071 -0.08589200450716031
654000000 0.9746725215273446 -0.08518676771799437
660000000 0.9750030923375673 -0.08775252141674972
666000000 0.9746082057783324 -0.08910721590059952
672000000 0.9747324168955503 -0.08958647932908753
678000000 0.974198170377365 -0.09115556181247429
684000000 0.9752647236357295 -0.09253288380510437
690000000 0.9734792661259117 -0.09209944643680196
696000000 0.9745690978735083 -0.09305152698064313
702000000 0.9729520206431848 -0.09650389039916042
708000000 0.9722758924184073 -0.09561002883723879
714000000 0.9715183215274622 -0.09646407573546019
720000000 0.9730364100414077 -0.09676201323513155
726000000 0.9716541531209161 -0.09741472246444521
732000000 0.9710801142225163 -0.09777615961874511
738000000 0.9710735805223863 -0.09934010938666032
744000000 0.9704329838538255 -0.10131943721579094
750000000 0.970010472576155 -0.10135675089851605
756000000 0.9691097760074454 -0.10235819650324685
762000000 0.9689604239463454 -0.10304936825601992
768000000 0.9682929889947486 -0.10423478804944364
774000000 0.967968988521869 -0.10507130265688734
780000000 0.9690414301564214 -0.10644588289193314
786000000 0.9673757704334377 -0.10644360499016839
792000000 0.9669010173902812 -0.10715684925539612
798000000 0.9668806333219686 -0.10783404340349836
804000000 0.9662879753263987 -0.10853165176460787
810000000 0.9664814160798014 -0.10916414509740915
816000000 0.9657287898203072 -0.11095066134819702
822000000 0.965470862515406 -0.11114801994100193
828000000 0.964223961689828 -0.11117341263421668
834000000 0.965012886027252 -0.11439220681832765
840000000 0.963701343037054 -0.115036774732074
846000000 0.9639265074243114 -0.11527481830865224
852000000 0.964739026800524 -0.11733487196591368
858000000 0.9651613422327429 -0.11768831674110655
864000000 0.9647034173883646 -0.1172423668250477
870000000 0.96419042083443 -0.11855617514112633
876000000 0.9657428383691854 -0.11517338232867154
882000000 0.9630508456700665 -0.11778136770875453
888000000 0.9628932452369722 -0.11904025523989575
894000000 0.9641520860499094 -0.1211611787686104
900000000 0.9653617753851383 -0.11970198148584343
