# HZ S RI R 50
300000000 0.9960092141394248 -0.02452131085400103
306000000 0.9960738558330029 -0.02471853375936458
312000000 0.9966391633336815 -0.02479876462863147
318000000 0.996152328084809 -0.024708224182429458
324000000 0.9965796726539302 -0.024136167192746402
330000000 0.9958691382446403 -0.02328756358974037
336000000 0.9970869711344298 -0.023978181948501816
342000000 0.9970388306575071 -0.02388403805112476
348000000 0.9976850837218462 -0.02358963871572824
354000000 0.997327392596041 -0.0234475391342156
360000000 0.9974058059889048 -0.02335384728035234
366000000 0.9973462067218398 -0.023204761598034824
372000000 0.9975809028043069 -0.023313875209786852
378000000 0.9981933453671319 -0.023127988766347262
384000000 0.9979193837197117 -0.022606038230464455
390000000 0.9977657475382918 -0.02363838196664105
396000000 0.9983066651345068 -0.0228933089703384
402000000 0.9983602485308888 -0.022348680752493442
408000000 0.998473565520506 -0.02318588255956655
414000000 0.9989661224771298 -0.02298796382367963
420000000 0.9984993538380218 -0.023724491444923983
426000000 0.9985359478642933 -0.023759963446504096
432000000 0.9989127593707315 -0.02436540398824686
438000000 0.9988128341741473 -0.02395429693324046
444000000 0.9989324352775059 -0.02486798208303858
450000000 0.999359770352978 -0.024895245028509577
456000000 0.9985922012750251 -0.025765096753890382
462000000 0.9985019402546986 -0.0262109926022916
468000000 1.0002489155397438 -0.0209458101426638
474000000 0.9982949119589477 -0.026359905996536835
480000000 0.9983082851182793 -0.026258858064269832
486000000 0.9981385662318017 -0.027404644491834034
492000000 0.9973075999449876 -0.028870387746416586
498000000 0.998023476631976 -0.02895578545548696
504000000 0.9973028788079527 -0.029844881663787143
510000000 0.9980924217024517 -0.030960771457657753
516000000 0.99894729092477 -0.030839545352984842
522000000 0.9979892345778816 -0.03200366039971061
528000000 0.996497071831757 -0.033100977237124365
534000000 0.9970849677873641 -0.03395676948704044
540000000 0.9972367507386579 -0.0355492480882805
546000000 0.9954662921943779 -0.036929376609489306
552000000 0.9965557515060367 -0.03788584425599941
558000000 0.9962756103357345 -0.038554359973704176
564000000 0.9962978272517378 -0.0395983891001646
570000000 0.9957934099901221 -0.04085456835703786
576000000 0.9952092526009809 -0.04137329027234404
582000000 0.9949369791652419 -0.0435150997433342
588000000 0.9945655321155688 -0.04466925468822741
594000000 0.9963309576449249 -0.04565641328747347
600000000 0.9948037620447366 -0.04707805762827663
606000000 0.9939221121349158 -0.048100072253621756
612000000 0.9936922089696518 -0.04929298593624796
618000000 0.9931156412931043 -0.05103534793788142
624000000 0.9940310198998047 -0.05255588020064854
630000000 0.992275077616777 -0.05439655507956457
636000000 0.9922369390192588 -0.05588968212552111
642000000 0.9920422781045558 -0.05691823532059116
648000000 0.992017418419743 -0.05928669071730979
654000000 0.9913644382368424 -0.05831537161262838
660000000 0.9919277158845219 -0.06078497965744319
666000000 0.9919193229934229 -0.06240343033859661
672000000 0.9919348557632006 -0.06295697680550325
678000000 0.9920719754055346 -0.06449510527347672
684000000 0.9906259572369241 -0.06496019068616607
690000000 0.9907087943541271 -0.06589120650593257
696000000 0.9920004015562723 -0.06628604541077233
702000000 0.990489888469378 -0.06924740014712594
708000000 0.9913014136468021 -0.06878172254663902
714000000 0.9903880240043306 -0.06902257546646973
720000000 0.9909666402361336 -0.0702288400456134
726000000 0.9912195894229392 -0.0712521345632541
732000000 0.9896405501596919 -0.0716999873742311
738000000 0.9905240859870925 -0.07201986799569027
744000000 0.99003230281517 -0.07351088651940416
750000000 0.9895055211421161 -0.07432269720440483
756000000 0.9892666472421161 -0.07443647273835613
762000000 0.9890442470691376 -0.07497615495595618
768000000 0.9887659824683283 -0.07559881315514266
774000000 0.9891479527693172 -0.07669314832029572
780000000 0.9905370568080002 -0.07780708845521572
786000000 0.9888559978349923 -0.07727644636061785
792000000 0.9887630450302098 -0.0777038889813563
798000000 0.9891505681646007 -0.07812375893564277
804000000 0.988974567730512 -0.07819037995355325
810000000 0.9895116238281473 -0.07892247903470309
816000000 0.9890678400807417 -0.08031643254013912
822000000 0.9888259404377738 -0.08011072494879908
828000000 0.9883667706827153 -0.07986280138392951
834000000 0.9888044314709498 -0.08116236417638091
840000000 0.9895461870346315 -0.08115508879430505
846000000 0.9893430146681951 -0.0821026773485073
852000000 0.9898910647284882 -0.0839250844395822
858000000 0.9913061775862322 -0.08143377843830199
864000000 0.9929770998538026 -0.08305353314845736
870000000 0.9905608781547836 -0.0837079861793785
876000000 0.9903935620976628 -0.08247241972601588
882000000 0.9876674880286196 -0.08268805405087296
888000000 0.9891177210415525 -0.08422213765638481
894000000 0.9911196746893847 -0.08669412461312255
900000000 0.9898060247139616 -0.08301049771769953
