# HZ S RI R 50
300000000 0.9878478697848849 -0.03466552990606906
306000000 0.9874225133828404 -0.03495978544012373
312000000 0.9875380989109648 -0.03495705545341353
318000000 0.9873158936303645 -0.034708633812894095
324000000 0.9872942612280338 -0.0347533861948409
330000000 0.9870555975824359 -0.03430068744099818
336000000 0.9877375438432294 -0.03541981213384496
342000000 0.9876276254564968 -0.035192000079237534
348000000 0.987494125065279 -0.03543663184724217
354000000 0.9875436500939516 -0.035351007495626245
360000000 0.987310504991102 -0.03626585245982447
366000000 0.987290949004795 -0.0354592097144959
372000000 0.9877544605175531 -0.036097170447639555
378000000 0.9878411427698949 -0.03593009948099167
384000000 0.987833816344772 -0.03591211906399814
390000000 0.987745026205467 -0.036367611311554665
396000000 0.9877919525267784 -0.03667620044283272
402000000 0.9876494026397671 -0.036718723794503985
408000000 0.9879111431459554 -0.037196892998413354
414000000 0.9877518308955092 -0.03774592303171767
420000000 0.9881958524213329 -0.038745087369640656
426000000 0.9871677131189858 -0.03885572656519893
432000000 0.9879789834990674 -0.03955356493215337
438000000 0.9873971123273126 -0.039739915947402775
444000000 0.9872775957162825 -0.040552107164896885
450000000 0.9874097143339803 -0.04087370450019527
456000000 0.9861007970944456 -0.04175524368295551
462000000 0.9866329554601332 -0.042607447872761654
468000000 0.9875077472010442 -0.03868262721650349
474000000 0.9867621713249456 -0.04323409662338736
480000000 0.9869029423957383 -0.04424904873858026
486000000 0.9853540213685175 -0.04478935318533184
492000000 0.9851440920430172 -0.0471104836298439
498000000 0.9858559730685148 -0.046839354878226595
504000000 0.9854930103077558 -0.04802969093802836
510000000 0.9852862515025566 -0.04818452877899747
516000000 0.9862288528817169 -0.04933324820207758
522000000 0.9861983859429435 -0.05073185270888547
528000000 0.9841686901169197 -0.05194721873592158
534000000 0.9849052584365923 -0.05273554502787997
540000000 0.9847164284963194 -0.05447756834000811
546000000 0.9838485759917174 -0.054774700760443315
552000000 0.9844181223957004 -0.056411445421421604
558000000 0.9834561655366354 -0.05756685740557431
564000000 0.983605647055929 -0.05800306103110076
570000000 0.9827800134103073 -0.06002882902955768
576000000 0.982296395114246 -0.060259167721637176
582000000 0.9820253919839783 -0.0620680466854635
588000000 0.981323142467474 -0.06359308976012859
594000000 0.9826332142709674 -0.06401135470139893
600000000 0.9815787248923978 -0.06559362415424753
606000000 0.9809606141816333 -0.0668274317947283
612000000 0.9802731476971155 -0.06841536874362145
618000000 0.980168661146682 -0.07012450422913519
624000000 0.9794880365447342 -0.07121041409759042
630000000 0.9796497837719412 -0.07375410631338133
636000000 0.9790215476381647 -0.07500947983483561
642000000 0.9788416217901542 -0.07663519035992367
648000000 0.9794068201757875 -0.07852829869522071
654000000 0.9785593476705369 -0.0771845605251201
660000000 0.9784544182164749 -0.08056181583097358
666000000 0.9780484951253527 -0.08151600588038908
672000000 0.9787706445627902 -0.0820901036833112
678000000 0.9789272515563158 -0.08361977438670926
684000000 0.9771873131783438 -0.0844028358362454
690000000 0.9776956622473697 -0.08435476772427158
696000000 0.9786205243570384 -0.08542307822166591
702000000 0.9779346417789821 -0.08675107985706183
708000000 0.9774390583187952 -0.0882230348885142
714000000 0.9759871267861141 -0.08830520923835239
720000000 0.9770593548861344 -0.08927033510476844
726000000 0.9761749218306331 -0.08979041587536823
732000000 0.975237573534472 -0.09113611457477912
738000000 0.9755615167427525 -0.0915919522224708
744000000 0.9746902224854497 -0.09326369276936769
750000000 0.9741939507492502 -0.09394137058504687
756000000 0.9738277909804202 -0.09440183843483249
762000000 0.9733618887922315 -0.09482325480973963
768000000 0.9730246038342035 -0.09636062184122787
774000000 0.9726973132603303 -0.09696699164878854
780000000 0.9748280806989691 -0.09987330845612946
786000000 0.9726404696840422 -0.09816359369898822
792000000 0.9717312700295483 -0.09927318528348113
798000000 0.9717622666049733 -0.1001026544680716
804000000 0.9713829189492137 -0.10041942336552948
810000000 0.97156036661584 -0.10139789416011695
816000000 0.9711666548140266 -0.10220908149146057
822000000 0.9707692911000697 -0.10322487142731901
828000000 0.9700522633140337 -0.10340537808035816
834000000 0.9702661248504532 -0.10509715226164335
840000000 0.9701922278431774 -0.10582016564618651
846000000 0.9696777495696661 -0.10756570383995001
852000000 0.9703749710134233 -0.1084627952613108
858000000 0.9708102891368534 -0.10770862241709181
864000000 0.9710582877008301 -0.11042159693426493
870000000 0.9698880945157695 -0.11002194887361848
876000000 0.9705324156047572 -0.10939809785859936
882000000 0.9691966701569414 -0.10839020195840843
888000000 0.9693184801862156 -0.1117459686795262
894000000 0.9702080652873607 -0.11427004113859773
900000000 0.9724481633370073 -0.11198010367550947
