# HZ S RI R 50
300000000 0.9922718213456456 -0.032562091749327095
306000000 0.9919413237441945 -0.033379976874776174
312000000 0.991421120989424 -0.03213236466170411
318000000 0.9922386059136827 -0.03357139243364701
324000000 0.9924713161928759 -0.03342093373669509
330000000 0.9922376249384353 -0.03154843691953311
336000000 0.991763252380966 -0.033336645338073276
342000000 0.9924552847223063 -0.03303501661048206
348000000 0.9926580373065541 -0.033080099060347735
354000000 0.9927611104764223 -0.03315674384858532
360000000 0.9929253105910473 -0.033651733431047944
366000000 0.9927428518965017 -0.03291248724408455
372000000 0.9930972982136681 -0.03328753829592018
378000000 0.9934512424076263 -0.03321553690939372
384000000 0.9932809708886133 -0.033028436236731525
390000000 0.9944539828210974 -0.03400542691971266
396000000 0.9934041805203878 -0.033458378052627843
402000000 0.9933929470281354 -0.03266059947637132
408000000 0.993849822830749 -0.033943085542770264
414000000 0.9939411120400831 -0.03389776905008357
420000000 0.9937558816920593 -0.03434891326572079
426000000 0.9936083896170845 -0.034979750387210524
432000000 0.993766644351628 -0.03527440577202562
438000000 0.9935183735360786 -0.035615905239166606
444000000 0.9931046680764145 -0.036165736915846736
450000000 0.9940760722359615 -0.03643883467643612
456000000 0.9934661117220511 -0.03726272066618722
462000000 0.99288611707202 -0.03747033451409742
468000000 0.9912374568735847 -0.03493556754657132
474000000 0.9927845400363341 -0.0384502545976267
480000000 0.9926811832851072 -0.03866112081769232
486000000 0.9925627855304533 -0.03996761069563835
492000000 0.9917086722596977 -0.041353409679072875
498000000 0.9931339512991191 -0.04133579351519978
504000000 0.9921805021949014 -0.042284375078889685
510000000 0.9917144619831675 -0.04349496073395846
516000000 0.9927768169607574 -0.04459176423272823
522000000 0.9914391913089965 -0.04521843364398532
528000000 0.9901561009550636 -0.046198932835461816
534000000 0.9917777725971353 -0.04640224950284942
540000000 0.9905249673637537 -0.04867491531575156
546000000 0.989844207767998 -0.05010378166732287
552000000 0.9901300178490582 -0.05039735808396492
558000000 0.9898223206546363 -0.05161246171664677
564000000 0.9900404924884708 -0.05267124294630508
570000000 0.9894496284303654 -0.054439704126910994
576000000 0.9887361748510732 -0.055198913148786374
582000000 0.9883340079857308 -0.05702420616788334
588000000 0.987520992431158 -0.05829224500738573
594000000 0.9875737944433396 -0.05887016881008232
600000000 0.9879543699721623 -0.0604366561640016
606000000 0.9871519836884356 -0.061825644042524906
612000000 0.9868731375118764 -0.06329642155022347
618000000 0.9862591525826045 -0.06512987757805805
624000000 0.9866558849489871 -0.06620205547752196
630000000 0.9854537602540817 -0.06921938654857687
636000000 0.9852164626166804 -0.0705451875948854
642000000 0.9851697891435168 -0.0710298205442388
648000000 0.9849116829338639 -0.07326245997374056
654000000 0.9861693025794842 -0.07498687693496438
660000000 0.9849709274871717 -0.07577306362125216
666000000 0.9841988662342989 -0.07644915463282767
672000000 0.985253102477626 -0.07772289520338894
678000000 0.9843443937526756 -0.07889831323398191
684000000 0.982799913752626 -0.07920341144130627
690000000 0.9828622281586671 -0.08060307432721292
696000000 0.9849249828603618 -0.08150853730401833
702000000 0.985138202613979 -0.08157636087608622
708000000 0.9830842774025522 -0.0841111267960491
714000000 0.9820525034075364 -0.08478550738174477
720000000 0.9836299543192641 -0.08559271110580913
726000000 0.9828228537968619 -0.08594352379409192
732000000 0.9812611746580445 -0.08654655608244784
738000000 0.982144485712301 -0.0873188978272797
744000000 0.9816011942473164 -0.08909357578491528
750000000 0.9814372799259261 -0.08962202498510712
756000000 0.9811326635379236 -0.09002512117900682
762000000 0.980521034004043 -0.09067188531545856
768000000 0.9804151725645652 -0.09184726977877741
774000000 0.980414527322507 -0.09255035898426515
780000000 0.9831520159458437 -0.09345051643121881
786000000 0.9801533533203323 -0.09382475464324828
792000000 0.9801045098782689 -0.09457749138448968
798000000 0.9801206414345172 -0.09544517304485912
804000000 0.9797975705897728 -0.09550498344939372
810000000 0.9801116377950848 -0.09562068186110545
816000000 0.9799813174897091 -0.09735177923228436
822000000 0.9790171825605615 -0.09784423668512414
828000000 0.9795988574952267 -0.09793284310391391
834000000 0.9789465682406052 -0.09972586523071686
840000000 0.9796072323650148 -0.1000651016850597
846000000 0.9792775204062083 -0.10158154041316002
852000000 0.9786892362114369 -0.1020059971131047
858000000 0.9811122548055847 -0.1022173747337471
864000000 0.9805773450888551 -0.1020402271105953
870000000 0.9805021619570288 -0.10291873139287373
876000000 0.9802117711838547 -0.10162447813853923
882000000 0.9792582111678543 -0.10197805158601164
888000000 0.9800533435407954 -0.10421442654855746
894000000 0.9791612835663462 -0.10556625612419118
900000000 0.9806704415503368 -0.10445048311036421
