# HZ S RI R 50
300000000 0.9797539470646621 -0.05195941199639305
306000000 0.980330047202868 -0.052666170198056965
312000000 0.9801253428970378 -0.05196531897158983
318000000 0.9798953579993747 -0.0527327707051297
324000000 0.9796534570342884 -0.052766254177438694
330000000 0.9803514717435025 -0.05208003145883827
336000000 0.9800931114114658 -0.05321969496705468
342000000 0.9805353964087875 -0.0532424323317982
348000000 0.9799330907409427 -0.053523766123611406
354000000 0.9799077336316722 -0.053595713938287805
360000000 0.9799340248361226 -0.054366037901262675
366000000 0.980104258625521 -0.054002757965734095
372000000 0.9802488270039647 -0.05489889555814604
378000000 0.9802136365484166 -0.055357596310822654
384000000 0.9799752563201056 -0.05561927025506965
390000000 0.9812966732394696 -0.05713663523826451
396000000 0.9797638178957295 -0.056448008444887905
402000000 0.9804282283590585 -0.05715624364137143
408000000 0.9797512520592465 -0.057033247844194085
414000000 0.9797851825117964 -0.05792837929291342
420000000 0.9795246550976492 -0.0588559706150331
426000000 0.9790205153259813 -0.05899442267761114
432000000 0.9798922084232117 -0.05961216058362362
438000000 0.9786065147645562 -0.06058263419618705
444000000 0.9788403558586904 -0.06144990136244128
450000000 0.9780746568940328 -0.061883454148168544
456000000 0.977672967479375 -0.06319237835200067
462000000 0.9774072281587293 -0.06433970438682272
468000000 0.9733504707064383 -0.06390491187079923
474000000 0.9772169600529663 -0.06464513710005813
480000000 0.977308109825339 -0.06529627950928057
486000000 0.9760254971347845 -0.06715563296849482
492000000 0.9755200898482508 -0.0690913721878269
498000000 0.9765635334004639 -0.06918084524945464
504000000 0.9759583995592338 -0.07045384030987395
510000000 0.9756930810169737 -0.07049046788927237
516000000 0.9766560893933289 -0.0721536185557258
522000000 0.9751959256684463 -0.07367931923850853
528000000 0.974043064977013 -0.07487737026100544
534000000 0.9754048770041608 -0.07549845562158403
540000000 0.9746621286925192 -0.07650706031127542
546000000 0.9726477650323695 -0.07939239435782117
552000000 0.9734221424307922 -0.07947274553906036
558000000 0.9729551457044899 -0.0807681919617168
564000000 0.9722097904249085 -0.0824896880359622
570000000 0.9720563285486626 -0.08367863053124894
576000000 0.9709450962607495 -0.08468943842508803
582000000 0.9697102677366453 -0.08710239268058392
588000000 0.9688797519859352 -0.08893988631766746
594000000 0.9703572765998705 -0.08984661620734362
600000000 0.9687649633187669 -0.09098722418901423
606000000 0.9680972956867746 -0.09268240970353092
612000000 0.9674889834644297 -0.09469025344841518
618000000 0.9665266155228703 -0.09686755319166239
624000000 0.9678428685438264 -0.0985812121503249
630000000 0.9654227542902761 -0.1009134509175643
636000000 0.9650324650531796 -0.10229292719894854
642000000 0.9659485670035928 -0.10322340809130628
648000000 0.9650808030750491 -0.10614726470563514
654000000 0.9655169988526485 -0.10661588954711823
660000000 0.9646117782997595 -0.10844546737102366
666000000 0.9643716466711459 -0.10996131863309146
672000000 0.964361936077787 -0.11126248164924415
678000000 0.9646072351662698 -0.1124261878249197
684000000 0.9638230843641568 -0.11191967302993315
690000000 0.963539978746335 -0.1136319950879827
696000000 0.9644420604912879 -0.11498657144983129
702000000 0.9607058590355025 -0.11995921722736587
708000000 0.9614172618495793 -0.1181929539871924
714000000 0.9602212111316706 -0.11918836664267836
720000000 0.9622912502723877 -0.11845855353000471
726000000 0.9606984687973004 -0.1204959333005436
732000000 0.9594503147215234 -0.12132496466852138
738000000 0.9602601525833521 -0.12254526116808022
744000000 0.9592558585471038 -0.12367417325239388
750000000 0.9588014661075179 -0.12507493230552902
756000000 0.9577520435522906 -0.12573807410657079
762000000 0.9566574808499131 -0.12757208951640814
768000000 0.9562189337019338 -0.12893498654542418
774000000 0.9560705549343755 -0.12962569845162067
780000000 0.9587895515294853 -0.13212979040935915
786000000 0.9557197100431541 -0.13094581003222308
792000000 0.9543970781068845 -0.13298546838827827
798000000 0.9546285872656853 -0.13372783400901112
804000000 0.9538263277182956 -0.1344013432901322
810000000 0.9538874017555842 -0.13535450316842068
816000000 0.9537857469606534 -0.13586900298738364
822000000 0.9517109698405067 -0.13822896154147735
828000000 0.9517302371484965 -0.1384821545172085
834000000 0.9515950353537403 -0.14152098853165065
840000000 0.9516468241429556 -0.14108158341831442
846000000 0.9511108351655319 -0.14271099468400772
852000000 0.9514721953236595 -0.1436103448931805
858000000 0.9535647750236501 -0.14391567932795546
864000000 0.951849404648055 -0.14599654009752883
870000000 0.9515998131375173 -0.14664183502806544
876000000 0.9515981652200016 -0.14628384656460924
882000000 0.951310208710346 -0.1463552108628482
888000000 0.9504524880828062 -0.1478394793211023
894000000 0.952217764192454 -0.14901233615290987
900000000 0.9540405785127164 -0.1498452347144548
