# HZ S RI R 50
300000000 0.972720761013079 -0.05406203473391349
306000000 0.9719873726427628 -0.05428348374244951
312000000 0.9715056808131551 -0.05364076628892063
318000000 0.9721795262629955 -0.054759920684974754
324000000 0.9716667115553614 -0.05540012793670214
330000000 0.9714515798525221 -0.054257018164580915
336000000 0.9721771862176366 -0.05546575277614425
342000000 0.9723712011033135 -0.05613756356201993
348000000 0.9720987391646597 -0.05645665930220426
354000000 0.9718472872891124 -0.05670687437410208
360000000 0.9716458807206554 -0.0576457789777253
366000000 0.9717591941285919 -0.05785492284604671
372000000 0.9717469200546149 -0.05846947895773548
378000000 0.9717009954112816 -0.05851484317643987
384000000 0.9718427834449076 -0.058783067854072016
390000000 0.9710570561695621 -0.06058427641682294
396000000 0.9712327764063794 -0.060057513178532876
402000000 0.9701076316098255 -0.061128547828214884
408000000 0.9707865078472491 -0.06184862357688595
414000000 0.9707638705068521 -0.06257133726894486
420000000 0.9708578098679491 -0.06336882745034317
426000000 0.9702332419914562 -0.06376837906955969
432000000 0.9704821843056604 -0.06484065179055012
438000000 0.969858197627271 -0.065328892428475
444000000 0.9688726015428425 -0.06718083417058879
450000000 0.9688114652121155 -0.0676028298752181
456000000 0.9683672637754289 -0.06876642744730666
462000000 0.968158562736154 -0.07019723602289483
468000000 0.9698153134170507 -0.06574515845786472
474000000 0.9675617505194236 -0.07146221206341055
480000000 0.9667325080587039 -0.07231721225051237
486000000 0.9674212696679694 -0.07320567946077941
492000000 0.9663450970818477 -0.07517456310369271
498000000 0.9669887756331451 -0.07542408321766454
504000000 0.9655635148350616 -0.07712978771444644
510000000 0.9664289612548287 -0.07728045302870885
516000000 0.9663594190516468 -0.07890921300614531
522000000 0.966264169042651 -0.08102411563609828
528000000 0.9640919222694158 -0.08140520521884692
534000000 0.9654342917392353 -0.083519254841764
540000000 0.964326867971505 -0.08601552707353123
546000000 0.9634891492153268 -0.0866226018625905
552000000 0.9643697971698847 -0.08768149214381249
558000000 0.962150663468313 -0.08938823498403019
564000000 0.962222398580052 -0.0900759517352551
570000000 0.9620516011886253 -0.09164990947096313
576000000 0.9610377188999977 -0.09217450662743228
582000000 0.9600622757509759 -0.0944231918011887
588000000 0.9594765681763535 -0.09593571937319355
594000000 0.9607146742872552 -0.09702625897446163
600000000 0.9590775761769742 -0.0989315724496938
606000000 0.9580961518155513 -0.10025587958236533
612000000 0.9576059881517403 -0.1021661072846875
618000000 0.9568879823541032 -0.10419704666242446
624000000 0.9574920180020684 -0.10574604183305227
630000000 0.9564514565245118 -0.10825136659560948
636000000 0.9551962438263457 -0.11026277193057538
642000000 0.9558323736753231 -0.1112902351021713
648000000 0.9546890462286554 -0.11402126659391998
654000000 0.9551992812573741 -0.11392959663997987
660000000 0.9554119562928823 -0.1165012765071544
666000000 0.9540484029537526 -0.11775630912082835
672000000 0.9547382660024049 -0.11866937528522088
678000000 0.9540022170720107 -0.11993804608991784
684000000 0.9536918873067027 -0.12187184957711579
690000000 0.9530195070949031 -0.12092962193991066
696000000 0.9543959638809915 -0.12177664875798415
702000000 0.9546747164661138 -0.1259964631888243
708000000 0.9516630965176834 -0.1254577897931494
714000000 0.9507964434071021 -0.1256748858321349
720000000 0.9511912913634467 -0.12660521736351085
726000000 0.9501610585387783 -0.12901609359218114
732000000 0.948322593579221 -0.12901295656661627
738000000 0.9501115181751775 -0.12921243315210817
744000000 0.9482170583060852 -0.13197088561786927
750000000 0.9476469577266278 -0.13263566057686044
756000000 0.9466130864459089 -0.1335277967002674
762000000 0.9457461648164303 -0.13400810688516213
768000000 0.9452133379838468 -0.13582832717708435
774000000 0.9448453911461225 -0.13711379090350925
780000000 0.9453442603323202 -0.140227944964059
786000000 0.9433941589155854 -0.1394585619452393
792000000 0.9424781757193014 -0.14062409774433793
798000000 0.9421398219371119 -0.1418079749447619
804000000 0.9415214900464692 -0.14276586686904447
810000000 0.9419390347002361 -0.1433967884610401
816000000 0.9407027232799478 -0.14522178103926794
822000000 0.939671058171241 -0.14566240175736392
828000000 0.9386684833614213 -0.14796022325690575
834000000 0.9393335216785557 -0.14917095702634328
840000000 0.9390514108611971 -0.150045056494516
846000000 0.9386074081761134 -0.15169241182699705
852000000 0.9381834752156204 -0.15509494406891097
858000000 0.9381827221633673 -0.15368888367581002
864000000 0.938464220543039 -0.15788174784048317
870000000 0.9379772711222787 -0.15678565046984771
876000000 0.939481030782273 -0.15538942098248623
882000000 0.937148074009409 -0.15644376748560096
888000000 0.9352002233246681 -0.15881647599614637
894000000 0.9375359197414539 -0.15901655853345495
900000000 0.9373725569505831 -0.16155929822758502
