# HZ S RI R 50
300000000 0.9875765490402388 -0.034932525816615975
306000000 0.9880392087135104 -0.034882334420811435
312000000 0.9869201165718945 -0.03482785035673458
318000000 0.987064118630633 -0.03542500224817112
324000000 0.9878318407706639 -0.035074399460491165
330000000 0.9880423239781383 -0.03389322358576201
336000000 0.9876994191439692 -0.03560105639682401
342000000 0.9878910995217528 -0.03577727722238687
348000000 0.9878288536876281 -0.03522307893013597
354000000 0.987874089759776 -0.03527737042562512
360000000 0.9874151871004166 -0.03580791983604709
366000000 0.9877830778304568 -0.035481757301872884
372000000 0.9879391784730378 -0.0360657984342026
378000000 0.9880303765919679 -0.035864677636369365
384000000 0.9878692562561375 -0.036444530178697324
390000000 0.9879386353640046 -0.03768791606224968
396000000 0.9880061728952894 -0.036649470664828876
402000000 0.9876117017336592 -0.037203608011300925
408000000 0.9881178958095077 -0.03733743660414983
414000000 0.9880561509277306 -0.037552728586335626
420000000 0.9879688238504917 -0.038692478471549135
426000000 0.9875040764232295 -0.038900040165487496
432000000 0.9878544644639387 -0.03894546460295957
438000000 0.9871995986584687 -0.039716588867464694
444000000 0.9867755148917776 -0.04021892316057801
450000000 0.987392249464861 -0.04067085621142387
456000000 0.986103178694799 -0.041571474176367064
462000000 0.9869947717362131 -0.04279557325528993
468000000 0.9848750644283792 -0.042374957076399745
474000000 0.9865545151332397 -0.04340641593697562
480000000 0.9862660864802998 -0.04412746319724673
486000000 0.9861753068170773 -0.044966874690994516
492000000 0.9846959235221798 -0.04740748602270725
498000000 0.9861024258852688 -0.04677645395707793
504000000 0.9852478933078181 -0.04805259342855976
510000000 0.9850146905252384 -0.04920770646252051
516000000 0.9868704753623762 -0.04997327409403581
522000000 0.9867043559900563 -0.05176362911303624
528000000 0.9840180748593713 -0.05169723826276072
534000000 0.985337043245573 -0.05310620205359352
540000000 0.9851749020409285 -0.05405487435790582
546000000 0.9843602294595035 -0.0552892321625561
552000000 0.9839990234613539 -0.05687171848592638
558000000 0.9839275684151461 -0.057691289554542106
564000000 0.9834969376415948 -0.0585589983032273
570000000 0.9831689125108815 -0.059947806286391674
576000000 0.9822597429929006 -0.06097119934111309
582000000 0.9824067273597039 -0.0626189376201691
588000000 0.9814980958051752 -0.06432467392027831
594000000 0.9817760491059696 -0.06506085748309173
600000000 0.9814668963065513 -0.06623683001997377
606000000 0.9809356246658737 -0.06756227180787404
612000000 0.980496294834739 -0.06913946182126306
618000000 0.9801357063491549 -0.07052684029319602
624000000 0.9809963167683159 -0.07186697491115034
630000000 0.9794496795529718 -0.0743856406976761
636000000 0.9792125803744971 -0.0759174932745727
642000000 0.9794220295209487 -0.0772975232971051
648000000 0.9784342717015352 -0.07926146662733265
654000000 0.9783280149187156 -0.07835574388100865
660000000 0.9792881284531081 -0.08177731666273569
666000000 0.9788062027403465 -0.08189526843489582
672000000 0.9787417441591566 -0.08278965566727989
678000000 0.9789572167845618 -0.08484580438089462
684000000 0.978405246996073 -0.0837513072323427
690000000 0.9773609384495575 -0.08588523788442377
696000000 0.9792234117208577 -0.0866580654399744
702000000 0.9773501556884605 -0.08983451554983314
708000000 0.9774171341788832 -0.0890496275539613
714000000 0.9760174452264305 -0.08888852297696259
720000000 0.9765412580049168 -0.09043118294364287
726000000 0.9768219175619387 -0.09066212959563184
732000000 0.9750950921861808 -0.0910528528597673
738000000 0.9755609565859067 -0.09271016549821717
744000000 0.975161341487908 -0.0944014199292375
750000000 0.9750016101406648 -0.0946959583418327
756000000 0.9739503679320789 -0.09579351922238136
762000000 0.9734289393276723 -0.09614810462393641
768000000 0.9731913887987096 -0.0968892292922509
774000000 0.9727562986921495 -0.09813281907761012
780000000 0.9753005643269858 -0.09971759487045644
786000000 0.9724438271119055 -0.09898005774689855
792000000 0.9720619151828072 -0.09971866165146034
798000000 0.9717706122510225 -0.10071974662785577
804000000 0.9716001140541235 -0.10133234127847315
810000000 0.971782066380025 -0.10207996592943182
816000000 0.9713606129802572 -0.10327255396940824
822000000 0.9711825985095078 -0.10377008335292948
828000000 0.9709511026750034 -0.10460870773012361
834000000 0.9699889310413646 -0.10615539938121454
840000000 0.9704218083102937 -0.10708173287283886
846000000 0.9696637862206603 -0.10755727209407784
852000000 0.9692046081758798 -0.10866401050196858
858000000 0.9724567684126116 -0.10799256553202735
864000000 0.9717497893578875 -0.11050704807641665
870000000 0.9700652958088732 -0.11008232144832515
876000000 0.9719502059523515 -0.10904716033054537
882000000 0.9688450225186674 -0.10809131563069167
888000000 0.9711178829111613 -0.11221164310439345
894000000 0.9713127186930115 -0.11298389588020646
900000000 0.9708217802425562 -0.11102639312858678
