# HZ S RI R 50
300000000 0.985051336981165 -0.04091201824611079
306000000 0.9848569012832519 -0.042804874819620864
312000000 0.9850416443343164 -0.041709212015185876
318000000 0.9852114206577538 -0.04205545672194042
324000000 0.985293206766568 -0.042476874207912456
330000000 0.9848333005864228 -0.04138327081352501
336000000 0.9851761361742986 -0.04293139861337487
342000000 0.9857687753251431 -0.04218411664672946
348000000 0.985558389765628 -0.04291078500870851
354000000 0.9853800426453774 -0.043102925889484826
360000000 0.9857070580184552 -0.043411952004985425
366000000 0.9856907003570768 -0.04317824997326967
372000000 0.9860401455723483 -0.043509874612083936
378000000 0.9857209289700701 -0.043712243665762616
384000000 0.9856713433043355 -0.04370914713128677
390000000 0.9862826044498301 -0.044103119210942676
396000000 0.985629604925273 -0.04429396188968413
402000000 0.9856739130725409 -0.04394359780803994
408000000 0.9860525421820187 -0.04549506798779426
414000000 0.9860120615169703 -0.04539351419065657
420000000 0.9857823896846575 -0.046441534719493124
426000000 0.98494186339315 -0.046810654678114384
432000000 0.9860041078002059 -0.04700739905636563
438000000 0.9855972383824367 -0.047400100404570406
444000000 0.9854428037729391 -0.048108412999690535
450000000 0.9853354697811532 -0.04875384210383147
456000000 0.9848513340580409 -0.04917271100761213
462000000 0.9840242995255585 -0.05089397275592366
468000000 0.9840000667602394 -0.05244509799140457
474000000 0.9841309764511113 -0.05131550146850291
480000000 0.9838574765676459 -0.05219056390787924
486000000 0.9834052243407597 -0.0525710584139464
492000000 0.9829337654812412 -0.05482776560569698
498000000 0.9841699808298389 -0.05483013935967375
504000000 0.9832102534332641 -0.0565784888785531
510000000 0.9840764079297373 -0.056133926631612166
516000000 0.9838735699816971 -0.05775630799907162
522000000 0.9834535958337596 -0.05925229040521077
528000000 0.9814199602077055 -0.059754767181897865
534000000 0.983120460017543 -0.061029101639601104
540000000 0.982476575819266 -0.06275684812410136
546000000 0.9808385638731519 -0.06326774124744082
552000000 0.9810517332511673 -0.06505622883842317
558000000 0.9805097614177938 -0.06604705976232135
564000000 0.9808333543501248 -0.06741799646523204
570000000 0.9799003324237825 -0.06901706859628486
576000000 0.979527009117993 -0.07003495567974166
582000000 0.9788076435741725 -0.07178498449951587
588000000 0.9781432448722133 -0.07320957377336766
594000000 0.9783039279792562 -0.07403059354176326
600000000 0.9779415798643148 -0.07571089777958491
606000000 0.9771558443129066 -0.07717405920306133
612000000 0.9767126138081091 -0.07897868635383846
618000000 0.9759732451943691 -0.08066411749328088
624000000 0.9767588073443682 -0.08219299089904697
630000000 0.9752551137478572 -0.08457562628416905
636000000 0.9749489546173861 -0.08611355600790377
642000000 0.974462094527627 -0.08803573347219225
648000000 0.9749084084877581 -0.08980315736256636
654000000 0.9734669124659201 -0.08969555428184958
660000000 0.9754441961404164 -0.09207291829281773
666000000 0.9740574168762407 -0.09377267281214718
672000000 0.9749270994751021 -0.0940154802313511
678000000 0.9754904395315804 -0.09567819984757582
684000000 0.9733634316741664 -0.0975158469389633
690000000 0.9728061950396768 -0.0970892719508467
696000000 0.9745012819579495 -0.09873709963233174
702000000 0.9735892479625199 -0.10153729723843428
708000000 0.9727867234348795 -0.10091811335658359
714000000 0.9710471212983325 -0.10202095063861834
720000000 0.9720274733490487 -0.10302501530677738
726000000 0.9717736087552038 -0.10342699549636265
732000000 0.9704619682641356 -0.10406922368310181
738000000 0.9708931582032048 -0.10562924119035856
744000000 0.9698530145693784 -0.106879357643156
750000000 0.9697424939626139 -0.10802299278018133
756000000 0.9692814997735468 -0.10804540392906016
762000000 0.9685271479984343 -0.10924132191161706
768000000 0.9681282998160787 -0.11076489519007585
774000000 0.9681410441757909 -0.11129149147790905
780000000 0.9707474579565462 -0.11351981063116198
786000000 0.9679958376175767 -0.11287488998334598
792000000 0.9672060571118972 -0.11402979624740622
798000000 0.9672933185083656 -0.1149501259947734
804000000 0.9668415910458918 -0.11494706873272645
810000000 0.9669270874441556 -0.11614568240627289
816000000 0.9661174892932274 -0.11763265966198916
822000000 0.9659476238303126 -0.11827911908294526
828000000 0.9660474511889464 -0.11761909669406242
834000000 0.966636157498736 -0.1205801795614336
840000000 0.9658833055484162 -0.12118395175596038
846000000 0.9653908651147366 -0.12299263293471223
852000000 0.965773067208888 -0.12339378478936652
858000000 0.9683084728459543 -0.1226686772942098
864000000 0.9666925925705575 -0.12357269632627904
870000000 0.9653588539918182 -0.12670522674208853
876000000 0.9690642534938142 -0.12467910478930622
882000000 0.9673424178350196 -0.12438930142272349
888000000 0.9649212486826771 -0.12754466240547002
894000000 0.9662137740295426 -0.12664783129832644
900000000 0.9667500510939709 -0.12637643771489665
