# HZ S RI R 50
300000000 0.974456143440648 -0.05613783550910121
306000000 0.9749998963659583 -0.057413676220427444
312000000 0.9752373063402391 -0.05888099196133155
318000000 0.9740952593892984 -0.058480082371420106
324000000 0.9745581863821151 -0.05827335351730703
330000000 0.9739266174621137 -0.057767947621971905
336000000 0.974644370234609 -0.0590051946097199
342000000 0.9747790923622814 -0.059325989371850026
348000000 0.9747296432591701 -0.05952006600891196
354000000 0.9747233679534053 -0.060007118100917516
360000000 0.9740253915747553 -0.06076010733745481
366000000 0.9741350061988904 -0.06073544998597678
372000000 0.9749142589682446 -0.06097167222692442
378000000 0.974776460596905 -0.06168399872780189
384000000 0.9744093554746003 -0.062234829098716325
390000000 0.9743765045012427 -0.0633422615866611
396000000 0.9744559592700203 -0.06318747825770073
402000000 0.973587566009236 -0.06394964096601441
408000000 0.9742694938944275 -0.06459410113658243
414000000 0.9741166533483341 -0.06482186387537352
420000000 0.9741195563266053 -0.06589731790728844
426000000 0.9735040685363145 -0.06638991338552011
432000000 0.9741511799997127 -0.06778529764790922
438000000 0.9730095848640486 -0.06820542188386386
444000000 0.9721949528701768 -0.06979228908152339
450000000 0.9723359668553562 -0.07016617574464767
456000000 0.9726094525560776 -0.07067458106180355
462000000 0.9715574186753579 -0.07268721952479164
468000000 0.9649808715891693 -0.07055723830853715
474000000 0.9705978940154656 -0.07447179075902573
480000000 0.9713377959911194 -0.07508824586479673
486000000 0.9703405222487224 -0.07658401876293544
492000000 0.969348325521586 -0.07812808253220524
498000000 0.9708438865543352 -0.07821177484602462
504000000 0.9695718745944719 -0.08024674811895409
510000000 0.9689708404762422 -0.08152303451156415
516000000 0.9704973100495259 -0.08185705298386399
522000000 0.9694553605179319 -0.08419422364299356
528000000 0.9678170355547375 -0.08507676039331613
534000000 0.9683099917525605 -0.08585676646201601
540000000 0.9682974065138423 -0.08806255029661286
546000000 0.9669627348598511 -0.08929378165062654
552000000 0.9670053479637523 -0.09028390869150599
558000000 0.9663798811550327 -0.09181808347184296
564000000 0.9663247058770231 -0.09344729462321501
570000000 0.9650806329491146 -0.09528129108652088
576000000 0.9639332523687978 -0.09670036318430561
582000000 0.9636797369253546 -0.09853569704559727
588000000 0.9625891689536741 -0.10052757772950811
594000000 0.9632772480960973 -0.10081050096194569
600000000 0.9626493602958553 -0.10318689605531686
606000000 0.96151171108078 -0.10469489522916295
612000000 0.9609435825078235 -0.1066997607759469
618000000 0.9601349448968161 -0.10890977747271129
624000000 0.9597757924895982 -0.11073054468478835
630000000 0.9594286234575535 -0.11357310921041497
636000000 0.9584048519103646 -0.11558049463742057
642000000 0.9582881217048932 -0.11714142741365671
648000000 0.957642433530277 -0.11962726503439912
654000000 0.9564455114289454 -0.12166035949348707
660000000 0.956793946354998 -0.12216988090434258
666000000 0.9573432252552924 -0.12386493898474948
672000000 0.9569748417909603 -0.12488478081794761
678000000 0.9567638065052303 -0.126069349934664
684000000 0.9574644780562472 -0.12664264771013337
690000000 0.9558183639607734 -0.12904168520222997
696000000 0.9563612736878682 -0.1305577599448602
702000000 0.9547832470373564 -0.133923409731879
708000000 0.9546122393922528 -0.13231206038245666
714000000 0.9524810244146469 -0.13346780968404523
720000000 0.9546714932055208 -0.13377992552748538
726000000 0.9531474147660466 -0.13562238150417774
732000000 0.9510422691108397 -0.1361961592591995
738000000 0.9522782718558391 -0.13703781186917746
744000000 0.9511450731067053 -0.13908948515354846
750000000 0.9508729932764927 -0.14012012763343878
756000000 0.9496842467305475 -0.14119621612846497
762000000 0.948897142917806 -0.14183384491548276
768000000 0.9482614826489411 -0.14358837676780034
774000000 0.9482437834283703 -0.14473242671280048
780000000 0.9494214782642195 -0.1483991421787376
786000000 0.9473701881329273 -0.14679744208657763
792000000 0.9462222819671505 -0.14811189267012062
798000000 0.9461477034457114 -0.14921177488564472
804000000 0.9456620573234986 -0.14982236247589772
810000000 0.9452363616053113 -0.1517787914830523
816000000 0.9447834946103395 -0.15289457955775082
822000000 0.9439051567545687 -0.15407645184629795
828000000 0.9431993487983067 -0.15488014725019214
834000000 0.9430837575789416 -0.15681575899433442
840000000 0.9431334883716145 -0.15776479750558642
846000000 0.9421397453200179 -0.159245502507961
852000000 0.9417861552441086 -0.1606847251361078
858000000 0.9428343381689223 -0.16284555212335972
864000000 0.9418022024490221 -0.16377041080251065
870000000 0.9421515836518717 -0.16428675565850331
876000000 0.9420652231736176 -0.16284525670512798
882000000 0.9428789878436492 -0.1637826329316018
888000000 0.9397194675688024 -0.16679078647428483
894000000 0.9433527379607711 -0.167744064160497
900000000 0.9430032478037361 -0.1632568190222876
