# HZ S RI R 50
300000000 0.9849906404562311 -0.0385682063267437
306000000 0.9852720197393753 -0.038651001627654266
312000000 0.9854797602576519 -0.0387422354460089
318000000 0.9848356781368606 -0.03872867637365182
324000000 0.9853432687598492 -0.03857492530984478
330000000 0.9848645788740146 -0.03807906108073494
336000000 0.9852081806107207 -0.03944893450085908
342000000 0.9850997409575647 -0.03877605305335644
348000000 0.985163300144699 -0.03925924073976582
354000000 0.9851555329250581 -0.03935511415447724
360000000 0.9849726169139974 -0.0392886127696154
366000000 0.9852469205871586 -0.03942875778942984
372000000 0.9855452201435534 -0.04004657847536902
378000000 0.9855094660806777 -0.04007390444367809
384000000 0.9853866717448067 -0.04059581654008119
390000000 0.9858388552629517 -0.04053804236648424
396000000 0.9854009470018344 -0.040953300915004785
402000000 0.9852331442387214 -0.04053691557446236
408000000 0.9853593983341244 -0.04188199496120729
414000000 0.985211194244404 -0.0419815965208969
420000000 0.9850748986480712 -0.043028079925608115
426000000 0.9845815398319444 -0.04340212109416734
432000000 0.9854019131902242 -0.04401521468396616
438000000 0.9844113518939979 -0.04436899629369154
444000000 0.9838217401335385 -0.045496701559310765
450000000 0.9844255920136191 -0.045977863541989135
456000000 0.9840171593936536 -0.04661403092294404
462000000 0.9833211558796284 -0.04752087659158324
468000000 0.9844993415857902 -0.04821070376618269
474000000 0.9833480702405987 -0.04829105630548224
480000000 0.9841543262165999 -0.049195266700436426
486000000 0.9827088992604246 -0.05039029267992765
492000000 0.9816602138583413 -0.05164420249835697
498000000 0.9827889658143034 -0.05226757401171078
504000000 0.9820264147764094 -0.05289470467490514
510000000 0.98198453750417 -0.053723100318087726
516000000 0.983156269023891 -0.054847980832456344
522000000 0.9822915514461256 -0.0568420442783962
528000000 0.980860136479418 -0.05732644876539685
534000000 0.9827125430494833 -0.05887556431468548
540000000 0.9813469663187026 -0.05980584747996911
546000000 0.9802347663589451 -0.06112452469683379
552000000 0.9810178527527447 -0.062346161375884765
558000000 0.9801221003504226 -0.06293209988960329
564000000 0.9800112919597109 -0.06429624490366286
570000000 0.9794879064960853 -0.06586168074552778
576000000 0.978639050426151 -0.06656184010134307
582000000 0.9784393816000945 -0.0684438839413184
588000000 0.9774793536256854 -0.06988875433873146
594000000 0.9777423296380825 -0.0704113998523073
600000000 0.9779073742738421 -0.07206949029398027
606000000 0.976884150946326 -0.07350738393442185
612000000 0.9763814789391139 -0.07505886896621193
618000000 0.9762469991232503 -0.07670442533708711
624000000 0.9771185072043098 -0.07824272970369624
630000000 0.9751030803346235 -0.08040991279285753
636000000 0.974892965760264 -0.081637734011264
642000000 0.9752245275695354 -0.08291322616450832
648000000 0.9749451999774885 -0.08544215217567155
654000000 0.9737926579722992 -0.08465250530891408
660000000 0.9750387719481424 -0.08652519555143827
666000000 0.9746857245863834 -0.08834901964599727
672000000 0.9752769142556057 -0.08829915649226902
678000000 0.9748378920763963 -0.09097076564107379
684000000 0.9734762730584755 -0.09233878784232585
690000000 0.9737576432779395 -0.09191914232830939
696000000 0.9753038199283259 -0.09177566731925106
702000000 0.9731963008923938 -0.09326155322431864
708000000 0.9722480943033157 -0.09551569306443607
714000000 0.9714331843515461 -0.09494556499642734
720000000 0.9726522257322149 -0.09593779446944807
726000000 0.9716513269797142 -0.09651876263920744
732000000 0.9702066360407344 -0.0984685347207356
738000000 0.970855376287825 -0.09919684332224406
744000000 0.9707670486915637 -0.10092985706972314
750000000 0.9700115274715365 -0.10163241201302191
756000000 0.9689405896915785 -0.10200442201774139
762000000 0.9680498287919089 -0.1029856128010185
768000000 0.967829170271258 -0.10407270411840973
774000000 0.9679220062921948 -0.10502418782263945
780000000 0.9697187369749711 -0.10712255075248232
786000000 0.9673279176411382 -0.10591525602093313
792000000 0.9670016343431921 -0.10692183978771294
798000000 0.96661755377883 -0.10799468390403444
804000000 0.9663180197430438 -0.10819968915597535
810000000 0.9666079574438646 -0.10905141182887465
816000000 0.9651753104255009 -0.11088884985273659
822000000 0.9651156901729805 -0.11167539502053397
828000000 0.9656008242954024 -0.11246017898360043
834000000 0.9644644265597452 -0.11336649378575823
840000000 0.9649493968299337 -0.11460092292355535
846000000 0.9636977829537788 -0.11572041037037582
852000000 0.9651544112990784 -0.11597345607488369
858000000 0.9641269128247131 -0.11626105323469123
864000000 0.9647558923890515 -0.11820689360335325
870000000 0.9628689109346085 -0.11924749384545408
876000000 0.9631141805741904 -0.11805022287496074
882000000 0.9618527866718898 -0.11775719945086835
888000000 0.9644804219987809 -0.12011048081158465
894000000 0.9648056253648877 -0.12092640006780396
900000000 0.9666036948734563 -0.11966496578339532
