# HZ S RI R 50
300000000 0.9829286097174391 -0.047191699814849455
306000000 0.983106430937055 -0.0480097336318865
312000000 0.9831963962953663 -0.047713980257644575
318000000 0.9834194152708954 -0.04802870606466963
324000000 0.983433563908847 -0.047994250875263905
330000000 0.9831770279143954 -0.04694246051054028
336000000 0.9833062928439966 -0.048110853171768844
342000000 0.9834712044562389 -0.04866967969273811
348000000 0.9833339622552205 -0.04885902480300655
354000000 0.9835047582883331 -0.04888897192759357
360000000 0.9835859687295087 -0.04960281037856863
366000000 0.9834167689300387 -0.04927710503430024
372000000 0.9835510458455344 -0.04993103273139974
378000000 0.9835227502874289 -0.050049140837314515
384000000 0.9832825045673402 -0.05074573572748356
390000000 0.9843685961871521 -0.050876279582328
396000000 0.9835125092076842 -0.05136886137186311
402000000 0.9837344506575333 -0.0522327379270632
408000000 0.983598777797099 -0.05202439393767478
414000000 0.9830413681175121 -0.05248493864744047
420000000 0.9833972042660365 -0.05334875824760825
426000000 0.9826761406170655 -0.053871241915292016
432000000 0.983559420601494 -0.05427566001100376
438000000 0.982444413191335 -0.05480313033108653
444000000 0.9820334504626808 -0.05629420350945442
450000000 0.9826579827806454 -0.056446515552378014
456000000 0.9816674623970726 -0.057437239463043105
462000000 0.9814844216759447 -0.057706349809289556
468000000 0.9739595106646621 -0.05704729216414571
474000000 0.9809580663216985 -0.059653482455799975
480000000 0.981863701298912 -0.06045243821284146
486000000 0.9803125324034009 -0.06147333752569111
492000000 0.9802409348750549 -0.06297348297821635
498000000 0.9805878890180446 -0.06304774420623556
504000000 0.98053989022929 -0.06466922897572908
510000000 0.9796262198107014 -0.06590855878795858
516000000 0.9808180505938471 -0.06701626019081272
522000000 0.9796889808426044 -0.06816999646048813
528000000 0.9781798031550891 -0.06897609286382798
534000000 0.9793041155142443 -0.07006043678426314
540000000 0.9791129105567685 -0.07235836448649473
546000000 0.9773996869545851 -0.07381990651293162
552000000 0.9777211723864697 -0.07495874699192501
558000000 0.9766691025050304 -0.07631206566287949
564000000 0.9768696507860781 -0.07751311247055181
570000000 0.9764015162149837 -0.07935369692468107
576000000 0.9750135533819887 -0.08047815248531014
582000000 0.9746083489519825 -0.08251737679223477
588000000 0.9736872234122272 -0.084197514426216
594000000 0.9735982796083541 -0.08435804447546322
600000000 0.9733993429461859 -0.0869609292882197
606000000 0.9727036917129737 -0.08836356280944756
612000000 0.9720604382908826 -0.09016495785022545
618000000 0.9715754414752308 -0.09240954852336482
624000000 0.9709557596309203 -0.09293810010958369
630000000 0.9705671837955564 -0.0961720761291786
636000000 0.9703536211038163 -0.09794209711311426
642000000 0.970239867485773 -0.09967286946411104
648000000 0.9693931536553149 -0.10179294857752925
654000000 0.9698256775989899 -0.10004908989293149
660000000 0.9702101653873789 -0.10513574143691903
666000000 0.9697472854518107 -0.10520937582344853
672000000 0.9689510965690208 -0.10666491430988227
678000000 0.9692714230132786 -0.108159281800758
684000000 0.9689651667844575 -0.11002430021224506
690000000 0.9686836399280937 -0.10990242051884869
696000000 0.9692064383634822 -0.11154564564754915
702000000 0.9709037391113532 -0.11336646645786332
708000000 0.9673246955818681 -0.11413872514590089
714000000 0.9653948459549375 -0.11463753266791804
720000000 0.9669946612216296 -0.11515579696261205
726000000 0.9661689399595024 -0.11706051983112875
732000000 0.9650394137858139 -0.11756916037491495
738000000 0.9654398882054623 -0.11869259043381294
744000000 0.9641051567611338 -0.12029327176133936
750000000 0.9641228445076125 -0.12063157861153986
756000000 0.963346604694676 -0.12128369855557367
762000000 0.962458372183173 -0.12214698375351903
768000000 0.9622671801316237 -0.12363601145525774
774000000 0.9618408493292292 -0.1252659974678141
780000000 0.964043649374561 -0.1268777293347451
786000000 0.9612988364938637 -0.126198472915772
792000000 0.9606053050274912 -0.12774229678029897
798000000 0.9605624494409544 -0.1284248842994465
804000000 0.9604541813459728 -0.12897279777180107
810000000 0.9598526605648633 -0.13021276548887273
816000000 0.9596310610974144 -0.13140841919502794
822000000 0.9601390916201088 -0.13103255438384365
828000000 0.9590487436080876 -0.1323900222128096
834000000 0.958482775590611 -0.1341441075937435
840000000 0.9589815450562527 -0.13482779537658424
846000000 0.9580804742719675 -0.1367057635726283
852000000 0.9577731006101544 -0.1378090008143724
858000000 0.9598558831014068 -0.13650277615373368
864000000 0.9602045129748155 -0.13892062196968802
870000000 0.9587293255499998 -0.14036576601289258
876000000 0.9589587023465892 -0.13812997994376014
882000000 0.9575329715025436 -0.13924122453261709
888000000 0.9594506789110431 -0.140660165994186
894000000 0.9585339901322889 -0.14269589711551833
900000000 0.9592778645534352 -0.14211268611134958
