# HZ S RI R 50
300000000 0.9968153668087281 -0.025445730378092186
306000000 0.9958885918737249 -0.025708376591851576
312000000 0.9968309813433075 -0.024587680698372055
318000000 0.996596598480595 -0.024875887286672237
324000000 0.9964940440119426 -0.02511500431102868
330000000 0.9961964394493265 -0.02444266470242376
336000000 0.9965238399013887 -0.024981168327158028
342000000 0.9968890565816075 -0.024838481494898493
348000000 0.996916470768799 -0.024590270327479687
354000000 0.9969560158696682 -0.024492856982701736
360000000 0.9962146051728216 -0.024663278679688917
366000000 0.9965007798815628 -0.023525667180161764
372000000 0.9976987349664228 -0.023362344445202823
378000000 0.9979106621201719 -0.023607883505953227
384000000 0.9977367087593296 -0.023471655576428333
390000000 0.9984345918000634 -0.024959525783516394
396000000 0.9980824450668652 -0.023657032666221788
402000000 0.9977945082490826 -0.024070824320455448
408000000 0.9984721837427125 -0.024508606091713948
414000000 0.998593209944873 -0.02430905501384051
420000000 0.9984937277417939 -0.024722784572577212
426000000 0.9979937747635442 -0.024921829539349807
432000000 0.9991114273985542 -0.024961205664300136
438000000 0.9980420659077552 -0.025587811523435054
444000000 0.9982996784901248 -0.025987611969175182
450000000 0.9984756408214038 -0.02600012016034727
456000000 0.9985007998042128 -0.026375826805055288
462000000 0.998272698364311 -0.0268807102698588
468000000 0.996201963784221 -0.02617432594907208
474000000 0.9978716856295702 -0.027851350959911786
480000000 0.9976258161957942 -0.027810932859180883
486000000 0.9980071705933168 -0.02897387890906058
492000000 0.9972369342942001 -0.030236689642425665
498000000 0.9981949894315193 -0.030424455728461315
504000000 0.9978669431173657 -0.03124960599796038
510000000 0.9971113220004526 -0.03202740457810102
516000000 0.9979161854790816 -0.03275720983356276
522000000 0.9977398485350144 -0.0338593619748987
528000000 0.9958844395102613 -0.03471675563930936
534000000 0.9971443665882722 -0.03526489346565369
540000000 0.997457140686097 -0.03682781811248095
546000000 0.9945416592444564 -0.037715857774196206
552000000 0.9960680282775577 -0.038358010547368086
558000000 0.9959776790723919 -0.03963589763847212
564000000 0.996052528204248 -0.04011318575660261
570000000 0.9955624285014135 -0.04180162956103293
576000000 0.9948133991477727 -0.04234325438837731
582000000 0.9945986346388992 -0.04400766112625404
588000000 0.9939848448022542 -0.045326009672195564
594000000 0.9937563780210804 -0.04598077267970095
600000000 0.9943646249930326 -0.04720511914129069
606000000 0.9935850043153241 -0.04873991749412084
612000000 0.9934339704003945 -0.049786607518592776
618000000 0.9931414555412756 -0.05195683376014032
624000000 0.9926026981028558 -0.05175725311691159
630000000 0.9921873620357453 -0.05451622265170186
636000000 0.9922359224547523 -0.05599258660631887
642000000 0.9923070844196896 -0.05712654045145117
648000000 0.9926306482590759 -0.05893507041598138
654000000 0.9932510573606921 -0.060191003363060255
660000000 0.9927182700094301 -0.06122219086679946
666000000 0.991549435921762 -0.06259217291695299
672000000 0.9923707568750235 -0.06278925590734728
678000000 0.9921227587733515 -0.06403494274794887
684000000 0.9923133304400898 -0.06505969423779188
690000000 0.9904921640283575 -0.0655010866546605
696000000 0.9929740161195659 -0.06604380993213654
702000000 0.992220226025123 -0.07119783002096276
708000000 0.9909823212627367 -0.06860192157817181
714000000 0.9904982157565466 -0.06862094065537754
720000000 0.9908706724004437 -0.06961100831142941
726000000 0.9907625375632417 -0.07021858339990063
732000000 0.9897097305294509 -0.07082826142473231
738000000 0.9912219877799292 -0.07126478320904212
744000000 0.9896161801919553 -0.07260344910150623
750000000 0.9898164131708083 -0.07404358189339486
756000000 0.9896267988298728 -0.07346287682446774
762000000 0.9891388336840902 -0.07392717603387151
768000000 0.9890070329086533 -0.07498966467921835
774000000 0.9887461446631153 -0.07535654318546507
780000000 0.9898819364694849 -0.07730260170568268
786000000 0.9891978275356397 -0.07547664071488099
792000000 0.9885733124588693 -0.07678990359023277
798000000 0.9887416274176323 -0.07750132221928341
804000000 0.9888755415986368 -0.07678163554288273
810000000 0.9893834752027266 -0.07785088554572657
816000000 0.9883427140412349 -0.07869743126268755
822000000 0.988816010989478 -0.07885737764930693
828000000 0.9878779638882057 -0.07866499060525733
834000000 0.9889905786942361 -0.08023466357031178
840000000 0.9890193673569575 -0.08130049529134989
846000000 0.9885391623502593 -0.08088048249093677
852000000 0.9889377688091661 -0.08182571286933196
858000000 0.9909693976399295 -0.08162268563140289
864000000 0.9898599726688497 -0.08215064482394367
870000000 0.9886717146436087 -0.08306696341932372
876000000 0.9899011772109978 -0.08089645320710062
882000000 0.9891328124614418 -0.08319861667374563
888000000 0.9886847278203706 -0.08287259550303462
894000000 0.9916394880874093 -0.08362354026101491
900000000 0.9921538989425003 -0.08267045122629278
