# HZ S RI R 50
300000000 0.9946090927465869 -0.0277290796932401
306000000 0.9951043332770018 -0.02787649648934638
312000000 0.9964841706562863 -0.028011178453201478
318000000 0.9957154717363715 -0.028022759619385967
324000000 0.9957031904108695 -0.027843318211209285
330000000 0.9959225259988697 -0.027171369095409036
336000000 0.9958385495185285 -0.02791778170414504
342000000 0.9958097243857181 -0.02767473577477291
348000000 0.996265679828514 -0.027461876271501966
354000000 0.9956339093017054 -0.02716281276261201
360000000 0.9952437977262104 -0.027631517486147453
366000000 0.9955920997848143 -0.0270421691959728
372000000 0.9967208871745991 -0.02699364723861329
378000000 0.9965958454083863 -0.02691087529939444
384000000 0.9967164037951858 -0.0271399916216367
390000000 0.9972710875577384 -0.027187022957287563
396000000 0.9971602945713148 -0.027291309461446398
402000000 0.9972259013314729 -0.027784943940052396
408000000 0.9976419336833888 -0.027600232653247576
414000000 0.9973861375561434 -0.02753589133668336
420000000 0.9973546451977874 -0.028196131352193846
426000000 0.9972609420062618 -0.028440213086099123
432000000 0.9981679374315711 -0.028729701114969468
438000000 0.9973590255737925 -0.02904449124435384
444000000 0.9971443240467771 -0.029605206942542418
450000000 0.9980802084073751 -0.02991420907753832
456000000 0.9976019834663895 -0.03065601265721298
462000000 0.997714022795153 -0.031021857520435736
468000000 0.9962354345820338 -0.0340075661885875
474000000 0.9975687087601259 -0.03189077527919535
480000000 0.997274183044076 -0.03245191345252273
486000000 0.9970993293493421 -0.03362711963056421
492000000 0.996210653788882 -0.03401595400515793
498000000 0.9972699975993715 -0.03420594875087028
504000000 0.9965617163822896 -0.035117543500901564
510000000 0.9963253153265966 -0.036571247343169924
516000000 0.9975697869008483 -0.0364014661596192
522000000 0.9964299889287803 -0.03765551130264994
528000000 0.9948780356341057 -0.039318167669127047
534000000 0.9961752433559116 -0.039489675766493586
540000000 0.9953019320778039 -0.04141074463392665
546000000 0.9945314052628637 -0.04167804987520674
552000000 0.9953175097930907 -0.04254838584742367
558000000 0.9947110605251369 -0.04367872698144224
564000000 0.994009682886951 -0.04483973178365663
570000000 0.9940835667784915 -0.04617286854887228
576000000 0.9935551583680904 -0.0465178947297322
582000000 0.9930555080426937 -0.04857117381266565
588000000 0.9925949930996648 -0.049813489788288805
594000000 0.9931011275341481 -0.05111300132972763
600000000 0.9927554538493757 -0.05159535089643443
606000000 0.9920806486898857 -0.053041505863142394
612000000 0.9919442096534737 -0.05457834026499702
618000000 0.9915392125502642 -0.05611857406948101
624000000 0.9913809976648311 -0.056871538119447604
630000000 0.9908435614859424 -0.059659979667420066
636000000 0.9909307695466524 -0.059955602017250136
642000000 0.9906599734721797 -0.062025081121889335
648000000 0.9900134644793908 -0.06419221956966746
654000000 0.9913907666697825 -0.06512319383455578
660000000 0.9907279534697275 -0.06461821370998962
666000000 0.9898700275644726 -0.06675417526754782
672000000 0.9896407975219131 -0.06781441488542612
678000000 0.9902784340686732 -0.06845101453824988
684000000 0.9899952846610207 -0.0687630336765667
690000000 0.9893316157898738 -0.06941567413546705
696000000 0.9905252566365557 -0.07076108088167186
702000000 0.9905499364025211 -0.07285478229559934
708000000 0.989494786796858 -0.07297766223339362
714000000 0.9879651719638849 -0.07301484260575157
720000000 0.9892327904773911 -0.07394522116418667
726000000 0.9894754023327291 -0.07447815023485287
732000000 0.9878125322179342 -0.07431565678966305
738000000 0.988777642451175 -0.0754157967459183
744000000 0.9882319100680916 -0.07693061146588669
750000000 0.9879802608336551 -0.07706542592748516
756000000 0.9874235318906339 -0.07783806658322752
762000000 0.9874164214503004 -0.07745876011062745
768000000 0.9872049407304936 -0.07886771054050505
774000000 0.9872996620465974 -0.07945874410359181
780000000 0.9884554457907373 -0.08048638760536593
786000000 0.9867454956962288 -0.08001578698291119
792000000 0.9867701053565828 -0.08061139844527918
798000000 0.9869611405122065 -0.08087388714276565
804000000 0.9870417340347973 -0.08077505118482847
810000000 0.9871661077611161 -0.08213676773872845
816000000 0.9872252880138325 -0.0828652672052301
822000000 0.9863531892580697 -0.08268681370760547
828000000 0.9859269307473365 -0.08185516727438143
834000000 0.9863323081964975 -0.0846029724582693
840000000 0.9867053087282526 -0.08490383780386349
846000000 0.9862456707198228 -0.08611932002557406
852000000 0.9869941461012557 -0.08634354632529939
858000000 0.9882772344155291 -0.08431802025725511
864000000 0.9881683968036377 -0.08488582524736056
870000000 0.9879997866814137 -0.0868428937829859
876000000 0.9876012709894162 -0.08515659098370437
882000000 0.9869078807312613 -0.08777578507360864
888000000 0.9874777097115752 -0.08986547662780431
894000000 0.9883797168215148 -0.08894514494356127
900000000 0.9899373618623036 -0.08823533956199073
