# HZ S RI R 50
300000000 0.9949626309476672 -0.026532965125562174
306000000 0.9953861562420538 -0.027067019773764005
312000000 0.9972821000816016 -0.02705404580448494
318000000 0.9951884839054888 -0.026949029804691667
324000000 0.9962370528052348 -0.026573653808825426
330000000 0.9961119857027274 -0.025406222798639407
336000000 0.9955398464015892 -0.02691435130522485
342000000 0.9962313214913948 -0.026327745366382882
348000000 0.9960548481472917 -0.026295982094421366
354000000 0.9957260632107753 -0.026078384475881684
360000000 0.9957103647145514 -0.025647469509460417
366000000 0.9961622697942152 -0.02529252932373568
372000000 0.9967604245886712 -0.02549494361421394
378000000 0.9969479258251027 -0.025691123514138506
384000000 0.9972216077300075 -0.025363502306817106
390000000 0.9973937630096933 -0.02597718682729924
396000000 0.997203599098288 -0.025959850803867614
402000000 0.997162541651165 -0.024828622116760214
408000000 0.9975771677828261 -0.026195027652126324
414000000 0.9978943294800463 -0.02612833559861852
420000000 0.9976401678297492 -0.026889813787674414
426000000 0.9971713960348342 -0.02679665955317223
432000000 0.9980270324600014 -0.027739878470747555
438000000 0.9975636294948346 -0.02766136629870775
444000000 0.9975284362996192 -0.028610283603355786
450000000 0.9978970207895396 -0.02820779464839949
456000000 0.9975053059644842 -0.02848856140017025
462000000 0.9978057280262109 -0.02947489684246823
468000000 0.9995626035365719 -0.0243146176623524
474000000 0.9966691449516235 -0.03023707781347738
480000000 0.9980488505436486 -0.029923086027098172
486000000 0.9965981193458426 -0.032733445518706515
492000000 0.995705107080584 -0.03248978325096747
498000000 0.9965603301710698 -0.03262021798362149
504000000 0.9969053089329836 -0.033999685006389196
510000000 0.9967576570102853 -0.0350568939201199
516000000 0.9969638905879653 -0.035865027645484424
522000000 0.9971708138275047 -0.03769031054267858
528000000 0.9952183322796786 -0.037615733048802544
534000000 0.9958790763543713 -0.03861286682796148
540000000 0.9957608618394003 -0.040597718184108844
546000000 0.994998295744136 -0.04102237628248403
552000000 0.9949606153719094 -0.04221850095973663
558000000 0.9949907957390803 -0.043735185283841675
564000000 0.9946274823032213 -0.04419530481690574
570000000 0.9942279786064939 -0.04576399546669022
576000000 0.9933434551885935 -0.0472464920975857
582000000 0.9928793345362354 -0.048427567294118866
588000000 0.9926469112006431 -0.050233949352315295
594000000 0.9932794227615243 -0.05085123205226977
600000000 0.9926879245986633 -0.05251361360002765
606000000 0.9918990066937241 -0.05364449286494008
612000000 0.9917622769976536 -0.05527699353056114
618000000 0.9914116256407287 -0.05714630193369056
624000000 0.9917333626707456 -0.057496703725430046
630000000 0.990809361273831 -0.06027617745219635
636000000 0.9907540434437765 -0.061680771381533855
642000000 0.9907611722648211 -0.06284069703985817
648000000 0.9906826908796412 -0.06454059462824563
654000000 0.9902570545018247 -0.06481463964592078
660000000 0.9906265070103054 -0.06667253850915315
666000000 0.9896275966329863 -0.0688273327813269
672000000 0.9898768038484848 -0.06892816244057667
678000000 0.9906173835421515 -0.07039485331448131
684000000 0.9894469580565691 -0.07058217811212912
690000000 0.9891563317439275 -0.07132528884854641
696000000 0.9905140680482554 -0.07266200059438743
702000000 0.9882783677891238 -0.07405243138228565
708000000 0.9889881776084195 -0.07451056802272882
714000000 0.9880723420171423 -0.07491552674549104
720000000 0.9890603284419507 -0.07539529827865325
726000000 0.988595902616694 -0.07610052384154126
732000000 0.9876281422215782 -0.07664145574650313
738000000 0.9877888762827556 -0.07731498515612915
744000000 0.9878949490941575 -0.07942965180466631
750000000 0.9874045961281889 -0.08016384196539167
756000000 0.9870500213650779 -0.07997094085185749
762000000 0.9866837100352589 -0.07989475200168324
768000000 0.9864479386594703 -0.08120125256956588
774000000 0.9866385024029141 -0.08144172750137363
780000000 0.9889401369884855 -0.08251424322589271
786000000 0.9868782334072791 -0.08192351299054695
792000000 0.9865447758338695 -0.08220255807967712
798000000 0.986870489747552 -0.0829436467552576
804000000 0.9864901116945517 -0.08337031421154187
810000000 0.9868224900855298 -0.08338693656354348
816000000 0.9869198601111625 -0.08442868855523449
822000000 0.9869514282281591 -0.08420444209695778
828000000 0.9859362874799901 -0.083987567068157
834000000 0.9861782403255762 -0.08689729738680156
840000000 0.9869567953588249 -0.08613095185610346
846000000 0.9866402655347708 -0.08665320594870636
852000000 0.987867873332053 -0.08783354979735312
858000000 0.9887203949539279 -0.08477549625126148
864000000 0.9877252880302434 -0.0872307287976857
870000000 0.9878721013960455 -0.08694734167847462
876000000 0.9900314324769824 -0.08559894417038452
882000000 0.9864959014246676 -0.0883360083184317
888000000 0.9900462894073547 -0.08821480370369165
894000000 0.9889766735967319 -0.08912792506693605
900000000 0.9909265759856176 -0.08972870671867086
