# HZ S RI R 50
300000000 0.9957551205595663 -0.024285230034187262
306000000 0.9962509620262949 -0.02510476556013454
312000000 0.9978481109801812 -0.02473119221273705
318000000 0.9962801536751565 -0.024614799020453094
324000000 0.9965125985473167 -0.024516839857548278
330000000 0.9966790363018446 -0.023757395312849625
336000000 0.9972712395313332 -0.02441156304634792
342000000 0.9967372137882446 -0.02419222776831118
348000000 0.997007563956323 -0.0241381391773561
354000000 0.9968685910345995 -0.023655274710423523
360000000 0.9970717671668761 -0.02392264461682797
366000000 0.9963683898020745 -0.02313773107689
372000000 0.9977832090254116 -0.023226941976134598
378000000 0.997959986244992 -0.022889984318608222
384000000 0.9978993809578726 -0.022821526942560396
390000000 0.9987149580924362 -0.024644728778793045
396000000 0.9981765787614844 -0.023373354192475635
402000000 0.9979764349167789 -0.02329127132778343
408000000 0.9983724435013223 -0.0238468471589804
414000000 0.9986211088083093 -0.023410934785770672
420000000 0.9989876621888214 -0.024225260367728225
426000000 0.9985153039835137 -0.02429693734643823
432000000 0.9991863584882401 -0.024459196557244565
438000000 0.998848652967424 -0.02427146886247046
444000000 0.9988921809119722 -0.02518331101714887
450000000 0.9988368217668899 -0.025336140136392207
456000000 0.9987501509485539 -0.02609648071715828
462000000 0.9985656653787236 -0.026071210512051978
468000000 0.9968915778950173 -0.02458253536160278
474000000 0.9979678072479542 -0.0270459256387006
480000000 0.998379478374944 -0.02712188119950992
486000000 0.9981004914734996 -0.028963929891383845
492000000 0.9977414083780154 -0.02962067293480549
498000000 0.9982971250250108 -0.029290317629072044
504000000 0.9972397887245051 -0.030561320911568764
510000000 0.9976208844117256 -0.0308695201425369
516000000 0.9989950790814524 -0.03206949892594542
522000000 0.9988447237423086 -0.033076745781730324
528000000 0.996254913142736 -0.03389307422462707
534000000 0.9967067527937133 -0.03463572276095034
540000000 0.9972843697024114 -0.035873786345633776
546000000 0.9963407661649697 -0.0367482040541298
552000000 0.9961325971890684 -0.037914703513975447
558000000 0.9958461422140321 -0.03862836072110254
564000000 0.9961342137673656 -0.0399514555060064
570000000 0.9956319223965809 -0.04130769903195181
576000000 0.9949770094754217 -0.04200777895315392
582000000 0.9949692978939637 -0.043197418301330816
588000000 0.9947197945523996 -0.04475549055654769
594000000 0.9938337545476997 -0.04550978319260611
600000000 0.9947150663153455 -0.046761448490969464
606000000 0.9938548389456402 -0.048194163152587725
612000000 0.9934914013745699 -0.049579918589023546
618000000 0.9933739556366331 -0.051310905337186095
624000000 0.9933596980202217 -0.05289459212171995
630000000 0.9927530738703523 -0.05462709900636297
636000000 0.9926171609564511 -0.05536268659952587
642000000 0.9926887704608585 -0.05643595568183717
648000000 0.9921915484028114 -0.05830074454348828
654000000 0.992130570527402 -0.05844227167786881
660000000 0.9921988816629744 -0.06043160133051867
666000000 0.9922204514208816 -0.06141457046023376
672000000 0.992384247497124 -0.06153887185228178
678000000 0.9921632706336552 -0.06350991770635424
684000000 0.9922406878866171 -0.06397594817214386
690000000 0.9911767407683377 -0.0649040635517216
696000000 0.9926444888702465 -0.06528080766935883
702000000 0.992080558199013 -0.06747715328493857
708000000 0.9914286957884377 -0.06647261000104536
714000000 0.9903187392802972 -0.0677477719049497
720000000 0.9919992528364235 -0.06823884601335664
726000000 0.9913957578510446 -0.06903691735742817
732000000 0.9895059333315575 -0.0692303198322273
738000000 0.990829588774588 -0.07004572509785849
744000000 0.9904812842455553 -0.0714306650426027
750000000 0.990200595752622 -0.07182822953470784
756000000 0.9894903636802272 -0.07221050384209364
762000000 0.9896012045419599 -0.0724918731370133
768000000 0.9894601222530931 -0.07280171389104792
774000000 0.9895409566925465 -0.07347014944193922
780000000 0.9918245185117165 -0.07687310034112477
786000000 0.9894912664445324 -0.07398183792274989
792000000 0.9893364946022468 -0.07453723030348024
798000000 0.989924046561077 -0.07516543030046197
804000000 0.9895540161887658 -0.07522594565062651
810000000 0.9897975280563757 -0.07569997099163074
816000000 0.9896271909676266 -0.07598896313813376
822000000 0.989888867842019 -0.07610073732383649
828000000 0.9900587382413171 -0.07710588831222696
834000000 0.9898091181470992 -0.07823814284931938
840000000 0.9904709758571086 -0.07771694645422109
846000000 0.9896410549275682 -0.0790659130192152
852000000 0.9896374962684912 -0.07924840805320689
858000000 0.9918653727735597 -0.07923801032500845
864000000 0.9894996483650187 -0.07902055707961081
870000000 0.9902272419189779 -0.07863827362268226
876000000 0.9917405405980498 -0.07921474931800179
882000000 0.9892180162900681 -0.08000305598844708
888000000 0.990855471604273 -0.08189272141458895
894000000 0.9916092024873537 -0.0808393744168329
900000000 0.9929261434143024 -0.07903894500952575
