# HZ S RI R 50
300000000 0.9960582610919678 -0.02562109553196528
306000000 0.9958571043149744 -0.02592896266515407
312000000 0.996811075902767 -0.025371558737940347
318000000 0.9961891208840884 -0.02554774822966132
324000000 0.9964096198282791 -0.02537131662910117
330000000 0.9964497204210943 -0.024615882148495027
336000000 0.996496791560094 -0.025625996042426824
342000000 0.9964753275787261 -0.02490689591786274
348000000 0.9967308678062484 -0.024934881758770455
354000000 0.9966437510662988 -0.024662660818456784
360000000 0.9965052843329525 -0.025275019325640483
366000000 0.9967815109412148 -0.024290326831406507
372000000 0.996930778218908 -0.024263035295595998
378000000 0.9973345303067022 -0.0241739369756755
384000000 0.9973871371987836 -0.02371530116403377
390000000 0.9984743624537578 -0.026011299458121258
396000000 0.9976933877196508 -0.024408668468111794
402000000 0.9976280956119143 -0.024168613010616315
408000000 0.9980073460164932 -0.025027813481518175
414000000 0.9981725733485303 -0.02464981800661052
420000000 0.9983630878140347 -0.02581159891463801
426000000 0.9984295732190237 -0.025702703326012644
432000000 0.9988764122420288 -0.025777822327583008
438000000 0.9983368850525591 -0.025912366164411567
444000000 0.998199486542514 -0.026779678153553175
450000000 0.9985698516588156 -0.026537254966347856
456000000 0.998123474186684 -0.02745715919970924
462000000 0.998228821090466 -0.02737884840017099
468000000 0.9995293317398214 -0.025611094562580025
474000000 0.9976560038978091 -0.027737431343071113
480000000 0.9972158325709362 -0.028771017705241108
486000000 0.9978669140444354 -0.029579310986942768
492000000 0.9963233607244919 -0.030619800344459786
498000000 0.9977696239454303 -0.030338153587583187
504000000 0.9977436077813667 -0.0320405849250029
510000000 0.9969211785060461 -0.03383979521276287
516000000 0.9982919698902578 -0.03339072556536966
522000000 0.9971468859694621 -0.03505587267757355
528000000 0.9953198326064379 -0.03618638993165125
534000000 0.9966815313623864 -0.036370055509074975
540000000 0.9969506546929056 -0.03728477626535328
546000000 0.9954000239336068 -0.038622999892522
552000000 0.996198538529304 -0.040133040262124435
558000000 0.9949280061879783 -0.040780656036177663
564000000 0.9956444346798855 -0.04210363234374288
570000000 0.9949222454478285 -0.04310822011954455
576000000 0.9945161013966362 -0.04470622407120524
582000000 0.9937882901070768 -0.046224204831355614
588000000 0.9938412688013153 -0.0472646415891172
594000000 0.9940595810070815 -0.04850441630475078
600000000 0.9938534482928749 -0.049527032681048404
606000000 0.9929088831143308 -0.05067511257802465
612000000 0.9928070306583537 -0.052374377941113506
618000000 0.9923709582666448 -0.05395460698029531
624000000 0.9934517116769257 -0.05459267809148315
630000000 0.9920848856554616 -0.05774506661616594
636000000 0.9917098633380489 -0.05866383440027508
642000000 0.9915466975429743 -0.05951408230601629
648000000 0.9912950410892789 -0.06168889319812631
654000000 0.992124288616048 -0.06192168329792697
660000000 0.9917391166466514 -0.06264248539403146
666000000 0.9907735870099573 -0.06476171201875303
672000000 0.991373165091712 -0.06535731995899079
678000000 0.9923053822304723 -0.06663800440355326
684000000 0.9922542448213406 -0.06550496864648093
690000000 0.9906785895573414 -0.06824213711576045
696000000 0.9925812599845595 -0.06859671397629295
702000000 0.989635840870029 -0.06978942493286036
708000000 0.9901921316105505 -0.07079104953223944
714000000 0.9893370367551786 -0.07012323793697206
720000000 0.9901809623993847 -0.0714388764072829
726000000 0.9901480394401662 -0.0725795043543244
732000000 0.988547331243799 -0.07259414448993119
738000000 0.9898293016734324 -0.07292177840364905
744000000 0.9892405346102772 -0.07532421943538473
750000000 0.988949917600263 -0.07448725129915694
756000000 0.9886888582742945 -0.07533628498880308
762000000 0.9885829899293861 -0.07537966136935055
768000000 0.9885177787933725 -0.07657595948534977
774000000 0.988428677631241 -0.07702539051699953
780000000 0.9915102405559494 -0.07715249880260673
786000000 0.9886219352277562 -0.07738449837000391
792000000 0.9882782511971071 -0.07831542517802537
798000000 0.9886726826852688 -0.07846460375828818
804000000 0.98848230026851 -0.07921901260784842
810000000 0.9885834216012913 -0.07933938776106073
816000000 0.9883762088691043 -0.08029003742921219
822000000 0.9882774677940147 -0.08059163989804562
828000000 0.9878576445642576 -0.07992371212274132
834000000 0.9897464835825185 -0.0813740158005167
840000000 0.9890723692967126 -0.08220897234513415
846000000 0.9880835685007916 -0.08217349127167137
852000000 0.9886122442827275 -0.0823293482687762
858000000 0.9892642532531635 -0.08218222013160299
864000000 0.9899566587413746 -0.08364742575899504
870000000 0.9889081421552716 -0.08263917199910648
876000000 0.9911325622206586 -0.08307822501171507
882000000 0.9892836304914019 -0.0832157368237882
888000000 0.9900411673818762 -0.08646402873253585
894000000 0.9906659113978815 -0.0859173250449785
900000000 0.9899539402343764 -0.08332055749392155
