# HZ S RI R 50
300000000 0.9957144896827701 -0.024614828901155964
306000000 0.9966429820408049 -0.0247772992981144
312000000 0.9971672175422299 -0.023908822789164463
318000000 0.9965452487402608 -0.024134711489377896
324000000 0.997192158228865 -0.02358605326348089
330000000 0.9964722479843815 -0.022823868387332837
336000000 0.9972133389446789 -0.024013823788481343
342000000 0.9968925630869983 -0.02351195346048882
348000000 0.9972675571346861 -0.023371143009651204
354000000 0.9972520923954603 -0.0232435604164432
360000000 0.9969382836393214 -0.023131540642905495
366000000 0.9971352895182909 -0.02257260183836696
372000000 0.997660181273792 -0.022802864949606566
378000000 0.99809394300928 -0.022514916406323405
384000000 0.9978345320375093 -0.02230839981127487
390000000 0.9994365585647619 -0.023699726158369662
396000000 0.9984190965771809 -0.022623508754647574
402000000 0.9981999056904998 -0.02324535268953702
408000000 0.9990392579933459 -0.022886557229301805
414000000 0.9988913289800776 -0.023192891628159993
420000000 0.9991380014987644 -0.02344196236237838
426000000 0.9989067149061024 -0.023880046107978184
432000000 0.9993863930073527 -0.02379115880586982
438000000 0.9993210227659344 -0.02380110179582666
444000000 0.9994073234480093 -0.024771783618612497
450000000 0.9989494752916575 -0.024785178435327758
456000000 0.9998367308847207 -0.024986327536937816
462000000 0.9988514095228422 -0.025917550684413544
468000000 1.0000651785165628 -0.017873925519423777
474000000 0.9983758576871912 -0.025631765761052763
480000000 0.998422105279351 -0.027024453557774407
486000000 0.9984090365731922 -0.027436379572267577
492000000 0.9974911343439766 -0.028817206070021424
498000000 0.9981246580664662 -0.028720221291347933
504000000 0.9984475170948093 -0.028891660486995582
510000000 0.9979693857290354 -0.030074329189368608
516000000 0.9989105792859219 -0.02981241498600477
522000000 0.99832142470858 -0.03169778197286041
528000000 0.9968286232300565 -0.03284483462092364
534000000 0.9976585431531529 -0.033557024932824336
540000000 0.9979988477217394 -0.03484509236976977
546000000 0.9969803272266105 -0.036392024247956456
552000000 0.9968460374236434 -0.03668750826752727
558000000 0.9961117612324939 -0.0376860120724884
564000000 0.9963300265351721 -0.03833691763126895
570000000 0.9960166058823249 -0.04012969366410605
576000000 0.9954119633298145 -0.04047363139585312
582000000 0.9949828287743148 -0.04201769950508069
588000000 0.9947418412100971 -0.04325609873624244
594000000 0.9963750155079971 -0.04412227522993885
600000000 0.9951130232906108 -0.045298438658779736
606000000 0.9944321703633737 -0.046568880449278094
612000000 0.9940935225214381 -0.04790224046734047
618000000 0.9937472517786242 -0.04955777684140263
624000000 0.993826684217755 -0.049765251182554905
630000000 0.9932775384673557 -0.05234526379800467
636000000 0.992777057280941 -0.05363911476587594
642000000 0.9935114956564985 -0.05482929305819628
648000000 0.9925472347550303 -0.05657063085572888
654000000 0.9933247627333163 -0.056298194739299895
660000000 0.9931700821881017 -0.0575799717869195
666000000 0.9928958299412968 -0.05941432178151522
672000000 0.9933562331309804 -0.06054161740525291
678000000 0.9930840624019788 -0.06079577538435222
684000000 0.9925437067046359 -0.061929610288793645
690000000 0.9912441153542799 -0.062144006401812564
696000000 0.9938453504020467 -0.06302464942594281
702000000 0.9933584983545605 -0.06519824041271999
708000000 0.9920494333900625 -0.06495538526421919
714000000 0.9904179567950844 -0.0654204351671638
720000000 0.9924906010849511 -0.06574359718123757
726000000 0.9923309658728904 -0.06724681483249657
732000000 0.9903004009282093 -0.0673005341056741
738000000 0.991578130823102 -0.06781350629386937
744000000 0.9911249118705943 -0.06923313484537273
750000000 0.991042409997802 -0.07021415571958226
756000000 0.991090710621561 -0.07026361295140215
762000000 0.9903727184989766 -0.06988426053079068
768000000 0.9902390351841599 -0.07081034022598771
774000000 0.990392696705757 -0.07102710427375315
780000000 0.9931175991748283 -0.07366714717934315
786000000 0.9901906112012308 -0.07149190372124191
792000000 0.9901179880940948 -0.07214273322567796
798000000 0.9906579524340282 -0.07254567117092896
804000000 0.9901238919178418 -0.07242120364769812
810000000 0.9911566536612829 -0.07283385734164624
816000000 0.990032764383732 -0.07425463414400436
822000000 0.9900728750868902 -0.07419097834970667
828000000 0.9891896055486886 -0.07379587693136759
834000000 0.990836578715541 -0.07616588981705978
840000000 0.9898463462397259 -0.07555514849439393
846000000 0.9901330315034093 -0.07668774606195851
852000000 0.9907838096057715 -0.07721176510388146
858000000 0.9932990296055049 -0.07640689333602776
864000000 0.9916543766540217 -0.07684579971020185
870000000 0.9913064309327133 -0.07829242014062229
876000000 0.9928442990251357 -0.07484662468973029
882000000 0.9911818227692429 -0.0781448252213375
888000000 0.9912091655087231 -0.08245036727775965
894000000 0.9928779669449044 -0.07958008475959373
900000000 0.9933725895270163 -0.07508770768805982
