# HZ S RI R 50
300000000 0.9960896105563667 -0.02568419042310816
306000000 0.9961404696254058 -0.025361379685037256
312000000 0.9963138976914759 -0.024986328797448422
318000000 0.9965792321320854 -0.0253693506402798
324000000 0.9963052961610677 -0.025076572390067057
330000000 0.9965315912274775 -0.023675276314100366
336000000 0.996906979250547 -0.024956424527409347
342000000 0.9971218014237214 -0.024683204820220586
348000000 0.9968670965807125 -0.02446472896200052
354000000 0.9969579404592662 -0.02449559007787823
360000000 0.9966623268426393 -0.023900232846054668
366000000 0.9968818113086119 -0.023693739725535585
372000000 0.9977231944887 -0.023666529876120574
378000000 0.9978784362714045 -0.023625919461702397
384000000 0.99774318872398 -0.023334412640726512
390000000 0.9985048156087674 -0.025049243429792478
396000000 0.9979464718640761 -0.02399194257002275
402000000 0.9979467887486433 -0.024063195054848024
408000000 0.9983264103727493 -0.023956999442954527
414000000 0.9987284779801648 -0.023799000115971976
420000000 0.9987902864758519 -0.025207197802966503
426000000 0.9984074211370932 -0.02482393126566934
432000000 0.9992978417270906 -0.024820869955798283
438000000 0.9982893612316908 -0.025168138644211264
444000000 0.998280707703625 -0.02585493135958998
450000000 0.998950358862855 -0.025822571413988013
456000000 0.9990015914805879 -0.02653432824807491
462000000 0.9979818592622623 -0.026360694638572577
468000000 1.0010003607819054 -0.02618331165396555
474000000 0.9980055927012794 -0.027165645167070752
480000000 0.9986111133293966 -0.027358093158086304
486000000 0.9973860752549648 -0.029182277769121204
492000000 0.9975334694356051 -0.0296974796071576
498000000 0.9983746587585082 -0.028983208143961797
504000000 0.9981392989476474 -0.030497090876878515
510000000 0.997337374159239 -0.03176670117582345
516000000 0.9981170713676815 -0.0326936918768975
522000000 0.997669097562058 -0.03410609147814554
528000000 0.9959233075615613 -0.03446137149087051
534000000 0.9972370891047351 -0.036071623557514726
540000000 0.996879497702027 -0.0368122866789262
546000000 0.9963786296220404 -0.03797770352277646
552000000 0.9964731694863281 -0.03895431771794552
558000000 0.9954431105561096 -0.03988714544519843
564000000 0.9959333076163093 -0.04126431777751094
570000000 0.9954133213996762 -0.04231723810639545
576000000 0.9946128548388554 -0.04258004287296058
582000000 0.9945915015416995 -0.04430467975816837
588000000 0.9943045251012853 -0.04589105115122621
594000000 0.9950169737655765 -0.04716860395830952
600000000 0.9939029478382012 -0.04832097373351228
606000000 0.9935416291719543 -0.04931418469700021
612000000 0.9933038975281709 -0.051123617751559804
618000000 0.9929871568943257 -0.05264114417041698
624000000 0.9925750088538119 -0.052744200441278616
630000000 0.9923129191594428 -0.05559276179280468
636000000 0.9921807724105318 -0.057050723000583885
642000000 0.9926224719149096 -0.058117444606832276
648000000 0.9925207311164507 -0.06058299353733032
654000000 0.9911417156029869 -0.059558126407807006
660000000 0.992141210718761 -0.061634094241950266
666000000 0.9921918990864842 -0.06312812644043408
672000000 0.9919477839400918 -0.06451365148644123
678000000 0.9919386809933357 -0.06540015930015124
684000000 0.991630500201112 -0.0679602871122136
690000000 0.9904621447711117 -0.06608701332423668
696000000 0.991548855128259 -0.06737452676609157
702000000 0.9894679347102809 -0.06871260587754544
708000000 0.9906290923790763 -0.06947961330771156
714000000 0.9898337774347576 -0.07020691823174063
720000000 0.9909279894013759 -0.07055495136324337
726000000 0.9907884103950372 -0.0713480159158589
732000000 0.9890894619943555 -0.0714658246079343
738000000 0.9903640040050569 -0.07246650316580522
744000000 0.9901836802771896 -0.07402959820726357
750000000 0.9900056839356409 -0.07413594079774052
756000000 0.9896837523096319 -0.07472583407194877
762000000 0.9888982088983649 -0.07504469057749612
768000000 0.9891994721582003 -0.0756199262477374
774000000 0.9892647780374006 -0.0758556928490673
780000000 0.9917000224375869 -0.07796608722776442
786000000 0.9890463363010884 -0.07659604369313804
792000000 0.9886987375430473 -0.0766620623043152
798000000 0.9892425899887428 -0.07747287148795631
804000000 0.9889263884469012 -0.07776420019592346
810000000 0.9893393548909872 -0.07795550684583423
816000000 0.9889992273123519 -0.07907566841959818
822000000 0.9887165260173633 -0.07862468034877432
828000000 0.9882335320975801 -0.07874336809423596
834000000 0.988771177095778 -0.08075699585605349
840000000 0.9898880989821135 -0.0812036859292952
846000000 0.9885648928930542 -0.0823047762391469
852000000 0.989592880517689 -0.08191864280718116
858000000 0.9917585555646183 -0.08085630588094096
864000000 0.9907792766524001 -0.08220382927998209
870000000 0.9893525428517569 -0.08323784615948077
876000000 0.9896564766497625 -0.0821922713958144
882000000 0.9898207096727515 -0.08290405092294269
888000000 0.9890764737287294 -0.08375658139192867
894000000 0.9907217271662875 -0.08556324044794206
900000000 0.9925504153011535 -0.08503459491398946
