# HZ S RI R 50
300000000 0.9959477080829785 -0.02533613332870862
306000000 0.99628822065993 -0.025586742598989146
312000000 0.9965875821028668 -0.02464205662188218
318000000 0.9962345050535206 -0.02545327607900841
324000000 0.9964376105999807 -0.025199587300680622
330000000 0.9959602795897213 -0.024447706821412497
336000000 0.99655854394915 -0.02546321378156569
342000000 0.996618822984521 -0.024764959169342043
348000000 0.9963360895422383 -0.024996372817517067
354000000 0.9965813756987218 -0.02451493983256101
360000000 0.9964251735643738 -0.02476805797732193
366000000 0.9968668850818261 -0.02387462715950251
372000000 0.9976304126153792 -0.02431774566113785
378000000 0.9977650829566301 -0.024206212515678123
384000000 0.9975639723275685 -0.024525052511253163
390000000 0.9979515141852251 -0.024483272279701623
396000000 0.9980283903201966 -0.02480530606556251
402000000 0.998514893694399 -0.025016127838642307
408000000 0.9983106037464479 -0.025368343445568986
414000000 0.9982897931572984 -0.02485784994282131
420000000 0.9983216190690941 -0.02534788584435602
426000000 0.9984924855078967 -0.02515686324788378
432000000 0.9985033654376027 -0.0256712365169666
438000000 0.9983653715043145 -0.025708877102324824
444000000 0.9981139204015269 -0.025745186748513366
450000000 0.9987253994242067 -0.026210184831560415
456000000 0.9984022434960268 -0.02682456777188997
462000000 0.9984642770587393 -0.027736202248821933
468000000 0.9923878164342453 -0.023459402238613432
474000000 0.9973743085390159 -0.02790886023609461
480000000 0.998427928099188 -0.028311498651522084
486000000 0.997846995839456 -0.0290270409355314
492000000 0.9965713831912713 -0.03019929106671301
498000000 0.9977351600482768 -0.031136076159908037
504000000 0.9972982893689933 -0.031128879612050752
510000000 0.996763142396865 -0.03349314390402027
516000000 0.9976049853877877 -0.03303242963304706
522000000 0.9972415749588425 -0.0342291073972366
528000000 0.9959086089087029 -0.03479066353919163
534000000 0.9976718085604372 -0.03601578320557199
540000000 0.996485562433106 -0.03719857979041267
546000000 0.9960559253018791 -0.03725473050538878
552000000 0.9962144025151759 -0.03808046584776488
558000000 0.9956503449797585 -0.040253072389987536
564000000 0.9958182640807425 -0.04104979207198385
570000000 0.995773074104919 -0.04232644958841234
576000000 0.9945733726772482 -0.04263088666167897
582000000 0.9944716557814255 -0.04459445496825769
588000000 0.993709036052949 -0.04584044672165039
594000000 0.9951323953625978 -0.04655951275486203
600000000 0.9941113349176733 -0.04841374404163184
606000000 0.9933760490987251 -0.049788513935466315
612000000 0.9931413151224076 -0.050852922857125296
618000000 0.9928325493037031 -0.052625924995766
624000000 0.9928467301799534 -0.05307579242509977
630000000 0.9922278387596102 -0.055715614050159006
636000000 0.9916590220442383 -0.05685322517523147
642000000 0.9922444601387868 -0.057647169029161956
648000000 0.9916346901012558 -0.06002268995321843
654000000 0.9928037079557739 -0.0598357365139533
660000000 0.9924739059303237 -0.060988780516722234
666000000 0.9917245405674213 -0.06270767069112672
672000000 0.9913947816442232 -0.06377811773626693
678000000 0.9921532127640013 -0.0652146176619735
684000000 0.9921168725298523 -0.06529427092796886
690000000 0.9905684491483087 -0.06532868184940478
696000000 0.9920784872847277 -0.06688637741244566
702000000 0.9893566950747733 -0.06803946813305448
708000000 0.9905249662170118 -0.06895324798561313
714000000 0.9902362093604522 -0.06838301035005866
720000000 0.9909677195338432 -0.06989638343011821
726000000 0.9907685058551909 -0.07012712322514059
732000000 0.9899146719963048 -0.07038129384115008
738000000 0.9906874223375418 -0.07135416043063658
744000000 0.9898432882165743 -0.07263999758987641
750000000 0.9897186289652817 -0.07368522027059127
756000000 0.9891319214703392 -0.07370826832984627
762000000 0.9884809852564282 -0.07364320421671382
768000000 0.9885262130204888 -0.07480426998353022
774000000 0.988662083312996 -0.07532246960849762
780000000 0.990496946100587 -0.07760831340083774
786000000 0.9889663470231895 -0.07534960399292641
792000000 0.9885906965012465 -0.07628342426677535
798000000 0.9889393208896314 -0.07654805004550361
804000000 0.9885523360283648 -0.07675070488086243
810000000 0.9893241829507161 -0.07655810668001987
816000000 0.9886570215636358 -0.07795119404023461
822000000 0.9885775473341866 -0.07771754918380397
828000000 0.9878712920314041 -0.07764134525937394
834000000 0.9896836639454352 -0.07888811378269635
840000000 0.9887869362555894 -0.07959691072566205
846000000 0.989044931756549 -0.07963856564729763
852000000 0.989046940312477 -0.08152092751645798
858000000 0.9914968590925076 -0.07972390185104528
864000000 0.9913400556078569 -0.08102321486751798
870000000 0.9887840552374692 -0.08182610339874112
876000000 0.9903917372774884 -0.08072179863968491
882000000 0.9879997951159322 -0.08009768662753927
888000000 0.9903853880160266 -0.08144868009976428
894000000 0.990281614165081 -0.08285205057696049
900000000 0.992099614540384 -0.08071648078227286
