# HZ S RI R 50
300000000 0.9960100791783841 -0.024956105083391387
306000000 0.9960045203345724 -0.025212774931182007
312000000 0.9959296798840773 -0.025021266039672026
318000000 0.9961673835595396 -0.024851312862431172
324000000 0.9964794692357883 -0.024545056639123503
330000000 0.9970403487820227 -0.02370613482630102
336000000 0.996896875639524 -0.024451859099283192
342000000 0.9972290262743004 -0.023959039738180515
348000000 0.9970242461748822 -0.024240132717667683
354000000 0.996740925827378 -0.024028060729540293
360000000 0.9974448562287441 -0.02368007201592045
366000000 0.9975146057298921 -0.023278214018884552
372000000 0.9977582886592846 -0.023402061641312043
378000000 0.9980408237618289 -0.023291392552302472
384000000 0.998217020773142 -0.023587102303732656
390000000 0.9984083340819676 -0.023985566095990063
396000000 0.9981411919764285 -0.0234901415098018
402000000 0.9982699737892811 -0.02335185182511747
408000000 0.9985417379614093 -0.02375557615086404
414000000 0.9984651252689746 -0.02390324838782944
420000000 0.9987096591815955 -0.024424920534022062
426000000 0.9986636185440158 -0.024678907097414885
432000000 0.9991535084536196 -0.024879177698287576
438000000 0.9988280205613912 -0.02451468116223062
444000000 0.9990382166465035 -0.024980264679965357
450000000 0.998835780710598 -0.025187666827647563
456000000 0.9981737979022047 -0.025941760664413716
462000000 0.9985901787345319 -0.026809053991265375
468000000 0.9934841577185364 -0.025275129113022186
474000000 0.9975722728033399 -0.02665251662035464
480000000 0.998373128363563 -0.027737245262694252
486000000 0.9977315037843854 -0.028514036149370987
492000000 0.9973158066414793 -0.029821437102513504
498000000 0.9981161083311119 -0.02941728623936857
504000000 0.9977708269586734 -0.030898909329538902
510000000 0.9975069541398001 -0.030826788961252707
516000000 0.9992936128733386 -0.031966934853602205
522000000 0.9978321256098703 -0.03344803241140986
528000000 0.9967055759250952 -0.03452863446656414
534000000 0.9976127603351557 -0.03501475039789028
540000000 0.9966272480480796 -0.03607359861593687
546000000 0.9967738204046804 -0.03701771443344358
552000000 0.9968896544446004 -0.03789308880158584
558000000 0.9962635705013665 -0.03929547931967191
564000000 0.9959326918618135 -0.040211684117686976
570000000 0.9958619635688489 -0.04112351442851369
576000000 0.9948982968864343 -0.04202200870347325
582000000 0.9946802983216791 -0.044317350840842464
588000000 0.994504304894179 -0.045067394833625145
594000000 0.9952430794436452 -0.045019610185977596
600000000 0.9944248339315389 -0.046767412263152654
606000000 0.9938597708278178 -0.048511451965086785
612000000 0.9935219176849304 -0.04959261244244177
618000000 0.9932771561793288 -0.0510800326405572
624000000 0.9936427912849761 -0.052078818905628675
630000000 0.9929069288053355 -0.05472484881847021
636000000 0.9921191410841315 -0.056058626824067606
642000000 0.9925190353589314 -0.05706878715753896
648000000 0.9927552071043705 -0.05818856193815613
654000000 0.9913902689071075 -0.05906026455471741
660000000 0.9917899561467822 -0.06048186218318855
666000000 0.9917819648608351 -0.06138356542901374
672000000 0.9922343472025535 -0.06260074158785905
678000000 0.9924265953928666 -0.06384623085974178
684000000 0.9909551661065608 -0.062918480081565
690000000 0.9914978896277211 -0.06457426937308718
696000000 0.9931229932885521 -0.06563449803222221
702000000 0.9930800330582312 -0.06675147385525755
708000000 0.9910581093481384 -0.06758569768842111
714000000 0.9902137197662719 -0.0674256997388391
720000000 0.9913616823958643 -0.06785783070287706
726000000 0.9912889375390196 -0.06826522087997718
732000000 0.9904595333739336 -0.0688732786072698
738000000 0.9908870629740755 -0.06998115739121347
744000000 0.9900820326256577 -0.07228955102390243
750000000 0.9903032410618656 -0.07191742803312619
756000000 0.9897571998307202 -0.07243179774061091
762000000 0.9892556632393181 -0.07234964464970314
768000000 0.9893208330382404 -0.07284181827127169
774000000 0.9894217761424099 -0.07353440057680524
780000000 0.9909629422110126 -0.07390439518760081
786000000 0.9895074324143537 -0.07400980883242383
792000000 0.9893313930717113 -0.07432353576622107
798000000 0.9892894337331208 -0.07497187892624843
804000000 0.9893694477305641 -0.07438656546132988
810000000 0.9907373807347272 -0.07491820805170071
816000000 0.9896730010845228 -0.0761522907431735
822000000 0.9888364350033563 -0.0765015454291078
828000000 0.9884785862578035 -0.07531370418499567
834000000 0.989623923490107 -0.07808938582037088
840000000 0.9899569402874802 -0.07792957657310491
846000000 0.988941195077009 -0.07891299562713977
852000000 0.9901800772382088 -0.07923251232338487
858000000 0.9907016446578991 -0.08054621801726712
864000000 0.990611868746255 -0.07860660061965816
870000000 0.9903763335747124 -0.0791495875211469
876000000 0.991450801169792 -0.07863361110494897
882000000 0.9889931726692074 -0.07974826633249574
888000000 0.9893200151442125 -0.08084992484267145
894000000 0.9917656862327783 -0.0823306947077176
900000000 0.9940321154977451 -0.07831523908850739
