# HZ S RI R 50
300000000 0.9959097250854315 -0.026579738632880597
306000000 0.9953834449511978 -0.0265389728647708
312000000 0.9962765185749697 -0.026111432906932706
318000000 0.9959319674888688 -0.026524969877603624
324000000 0.996493366431079 -0.025996947683679196
330000000 0.996147325059918 -0.02471492103822775
336000000 0.9961164963856525 -0.026242747094121006
342000000 0.9958869150117888 -0.026334105379957666
348000000 0.9963100464651533 -0.025959213085185194
354000000 0.9963863267337651 -0.025496718577617535
360000000 0.9969490969642136 -0.025367971848244956
366000000 0.9971301090516188 -0.02487212362537851
372000000 0.997230876196216 -0.02513153104354067
378000000 0.9974138038194879 -0.02526418480950045
384000000 0.997241561441105 -0.02480778198169966
390000000 0.9972147637643555 -0.0249830909196332
396000000 0.9975422364899695 -0.0256252067041507
402000000 0.9979516115359174 -0.02546133842379197
408000000 0.9978298999005638 -0.02588679444232183
414000000 0.9982055414585042 -0.025777921232733404
420000000 0.9980169887867129 -0.02684282858981335
426000000 0.9978211648460004 -0.02632703098494404
432000000 0.9983697110597587 -0.026816969289343816
438000000 0.9982272953723738 -0.026698938275961107
444000000 0.9978516860192591 -0.027474733568749285
450000000 0.9977691713043133 -0.027885657952641384
456000000 0.9975665514544126 -0.027985792195707553
462000000 0.9973944021967944 -0.028687198082746876
468000000 0.9936275903532991 -0.025126960482240987
474000000 0.9975263195655079 -0.029561541296382183
480000000 0.9977547410828592 -0.02919112449227269
486000000 0.9973306491833396 -0.03149346542245766
492000000 0.995931600604152 -0.032575126790686186
498000000 0.9977078996045704 -0.03215713261509114
504000000 0.9969449812834356 -0.033553817914315616
510000000 0.9969501870540537 -0.03424712925307455
516000000 0.9978994424104274 -0.03434094698481462
522000000 0.9974047721825946 -0.035711817383479755
528000000 0.9949278446497152 -0.035949428306631476
534000000 0.9970780658088456 -0.03702841520014621
540000000 0.9970458848901355 -0.03851033105128494
546000000 0.9951071407698687 -0.04012884193276998
552000000 0.9958665743102838 -0.040246208596302915
558000000 0.995057590416491 -0.04150405843152961
564000000 0.9953038738242778 -0.04252409496599892
570000000 0.9950506210389977 -0.04366108486812031
576000000 0.9940399830864636 -0.04469378852598844
582000000 0.9939345104270956 -0.04627521252043681
588000000 0.9932241933158699 -0.047478940155881603
594000000 0.9934785273396552 -0.04804953083381872
600000000 0.993467762011127 -0.04964751457463161
606000000 0.9929889225628744 -0.05075474136259283
612000000 0.9925986807723116 -0.052318114853579054
618000000 0.9925602681577754 -0.05368339885837902
624000000 0.9929037511163809 -0.05417843362202956
630000000 0.9916567106026501 -0.05700231239305642
636000000 0.9915977756414578 -0.058480604085520554
642000000 0.9916686700471129 -0.05952080218027241
648000000 0.9914699918281175 -0.06171489950042694
654000000 0.9906706529979689 -0.06250790682050662
660000000 0.991473348178767 -0.0624190128653831
666000000 0.991328097044912 -0.0638965004906538
672000000 0.9914577610139039 -0.06486096227503595
678000000 0.9907607040556365 -0.06626871728994534
684000000 0.989910385207979 -0.06630270661667748
690000000 0.9908455606816521 -0.06707525490704323
696000000 0.991930929472076 -0.06824309651803451
702000000 0.9901667400525075 -0.07060106212209763
708000000 0.9907765504072176 -0.06993788662194489
714000000 0.9895090056810296 -0.0704118187966352
720000000 0.9905174662557841 -0.07080891879028917
726000000 0.9900206788663032 -0.07122639633715398
732000000 0.9891864805832226 -0.0718531658776391
738000000 0.9896849112238089 -0.07283903455302297
744000000 0.9896842463974515 -0.07434991865497864
750000000 0.9891966147979401 -0.07465099879049242
756000000 0.9885756773418056 -0.07486408660218741
762000000 0.9884090985015753 -0.07517008501560889
768000000 0.9881715321373646 -0.07563851173679918
774000000 0.9882225429714225 -0.07655693681310126
780000000 0.9918627165121809 -0.07842585154410556
786000000 0.9884524911814802 -0.07687903342415803
792000000 0.9881830428843035 -0.07730967922425944
798000000 0.9882006389662985 -0.07750951996988904
804000000 0.9882903788558524 -0.07816177533931262
810000000 0.9890048922969119 -0.078608128341377
816000000 0.9881293239891968 -0.07944230026274295
822000000 0.9881946424344582 -0.07907819887404081
828000000 0.9883603753557865 -0.07961551345499113
834000000 0.9876201714325907 -0.08021852042359827
840000000 0.9885513969939539 -0.08069791340345722
846000000 0.989040553237702 -0.08151362318217002
852000000 0.9888465488737292 -0.08308509058685354
858000000 0.9899535501636489 -0.08065641814886011
864000000 0.988995807044246 -0.0830192912928626
870000000 0.9881030549179428 -0.08304330607424613
876000000 0.9896160378541098 -0.08199583043020583
882000000 0.9890161453796968 -0.08146781034035835
888000000 0.99045494635094 -0.08492922356379513
894000000 0.9915819983976633 -0.08408272293426718
900000000 0.9912604643815808 -0.0835699798671545
