# HZ S RI R 50
300000000 0.9959435379583722 -0.02567494462738087
306000000 0.9963462904200545 -0.024759754619463878
312000000 0.996876801729485 -0.02437238287429444
318000000 0.9966052987242663 -0.024699885463138376
324000000 0.9969120260570409 -0.024240505858555254
330000000 0.9975949404939777 -0.02344717402336649
336000000 0.9972314954887451 -0.024061479117413655
342000000 0.9973885292475021 -0.0239133888209271
348000000 0.9976298309614001 -0.02372015168137163
354000000 0.9973083416334546 -0.02369967102000996
360000000 0.9967796758254385 -0.024034842813678892
366000000 0.9972741995014084 -0.023274579349528045
372000000 0.9979081807417257 -0.022654611450676876
378000000 0.9979502502421728 -0.022440585548040744
384000000 0.9980603084865078 -0.02249053819798632
390000000 0.9982159528886483 -0.022003638617087144
396000000 0.9985737972375507 -0.022424688436805805
402000000 0.9997769833671029 -0.024400452934894217
408000000 0.9990073162292872 -0.022724009378993375
414000000 0.9992046605679739 -0.022043807542033965
420000000 0.9989335231084876 -0.022611797803974553
426000000 0.9989912594710435 -0.02292168368241642
432000000 0.9994035663009099 -0.02325476749948676
438000000 0.9988081533085341 -0.02315755286119343
444000000 0.9988232893594308 -0.023938535069199834
450000000 0.9994000656686937 -0.023174326140260836
456000000 0.9994931540438111 -0.024384816971147544
462000000 0.9988388378615097 -0.024605766992412712
468000000 0.9922708077062389 -0.017157302717717923
474000000 0.998895146558105 -0.024511096956494137
480000000 0.9988575679007209 -0.02479589153153876
486000000 0.9987456289613942 -0.02666995491777758
492000000 0.9983205259814897 -0.026921762311962544
498000000 0.9988250849966357 -0.02606318889590837
504000000 0.9983059080517499 -0.0271301245230123
510000000 0.9979432208481699 -0.028151947427425078
516000000 0.9991505809897513 -0.0283609463590063
522000000 0.9989200101647402 -0.02991670733564792
528000000 0.9969505996272782 -0.030375694546552895
534000000 0.9977507912921977 -0.031564757595770696
540000000 0.9972061322037776 -0.0321883308947368
546000000 0.9966503756032778 -0.033545520144414906
552000000 0.9974631829244034 -0.034332943783062383
558000000 0.9966087691637919 -0.03548934990095595
564000000 0.9966959715024389 -0.03561951531317136
570000000 0.9965008784511115 -0.037397300154110996
576000000 0.995592127581607 -0.03791175547220548
582000000 0.9955038896466615 -0.03938609033951437
588000000 0.9951675716352325 -0.04058558941403231
594000000 0.9957596504597009 -0.04137338609419433
600000000 0.9951945961129282 -0.0427799744408095
606000000 0.9946439023593161 -0.044070724681589166
612000000 0.9942541158842619 -0.04551899282688022
618000000 0.9939546888646043 -0.04714726748489905
624000000 0.9937018116252156 -0.04829269039491775
630000000 0.9933080940873656 -0.050172014516185096
636000000 0.9932245232175825 -0.05138477949102688
642000000 0.9934490918960319 -0.05205930695439425
648000000 0.9935872551362583 -0.054957994516701525
654000000 0.9939894505890201 -0.05389185565207825
660000000 0.9928228580610412 -0.05563051040765973
666000000 0.9927257593725963 -0.05738412064156268
672000000 0.9930345115067266 -0.05799456032008172
678000000 0.9931027871792386 -0.059674859541758045
684000000 0.9923540372905324 -0.06184072333292517
690000000 0.9920873637673411 -0.06072013958647992
696000000 0.9930183107944396 -0.06185794387187129
702000000 0.9943320635649466 -0.0626989606101647
708000000 0.9914342179878097 -0.06382243658044849
714000000 0.9913191981408148 -0.06439989638926397
720000000 0.9923445059598198 -0.06498622498566711
726000000 0.9913457398847512 -0.06604267564603503
732000000 0.9907336751502981 -0.06672476594712115
738000000 0.9916864914224826 -0.0672224198338904
744000000 0.9911355607514941 -0.06843858672358683
750000000 0.9908390048378719 -0.06968403984512334
756000000 0.9902353130290356 -0.0694658662777131
762000000 0.9898548457508893 -0.06984379065696576
768000000 0.9904277951826593 -0.07092471233006659
774000000 0.9904510997282852 -0.07161602152724077
780000000 0.9945211673817486 -0.07302474858425312
786000000 0.9901917585875352 -0.07251028657954905
792000000 0.9902400118357397 -0.07294298428434319
798000000 0.9904625774000552 -0.07327799695759457
804000000 0.9899227910347986 -0.07370606828178154
810000000 0.9899698936410862 -0.0743088768747999
816000000 0.9900130395746326 -0.07576945504335424
822000000 0.9900626670370919 -0.07597106223090844
828000000 0.9894194381434693 -0.07453613905323048
834000000 0.9901700071181179 -0.07739127725730761
840000000 0.9900566291969343 -0.07780311506663273
846000000 0.9899508668219162 -0.07806454262762552
852000000 0.9914309745661248 -0.07894726849957602
858000000 0.9931884465788484 -0.07931901326967361
864000000 0.9914506888817096 -0.07882291101657694
870000000 0.9906813130715597 -0.07995948893855945
876000000 0.9933460798298436 -0.08035272470343416
882000000 0.9894703324931287 -0.07941714159118538
888000000 0.9917922207703962 -0.08124334252458328
894000000 0.9929813405805645 -0.08153013002561535
900000000 0.9937051052787682 -0.08040389492599168
