# HZ S RI R 50
300000000 0.9964733803493788 -0.024097064144221504
306000000 0.996651337926004 -0.024346316361168355
312000000 0.9967975564052782 -0.024341674305029818
318000000 0.9966739918752652 -0.02415273322920235
324000000 0.9970989709638859 -0.023603151784492366
330000000 0.9971216980961841 -0.02250585275005938
336000000 0.9969803201963406 -0.023685701084221394
342000000 0.996889067621315 -0.023174738462778382
348000000 0.9973258479262839 -0.023073113759453225
354000000 0.9968787152148582 -0.023164220397336968
360000000 0.9976392539648451 -0.02271548849897132
366000000 0.9975465671891222 -0.022548170688914432
372000000 0.9977783179275244 -0.02245138189913482
378000000 0.997980401931536 -0.021897995826725147
384000000 0.9979636467846992 -0.02199503841487245
390000000 0.9981759367877074 -0.02227356133032925
396000000 0.9984146757473015 -0.021967522312565938
402000000 0.9983802849683091 -0.021772039490972266
408000000 0.9988693715907254 -0.022157114595488536
414000000 0.9984834898005635 -0.022159386910833294
420000000 0.9988791701536566 -0.022671203342338974
426000000 0.9984612321575476 -0.022539095338998224
432000000 0.9995430330736482 -0.022554680533411236
438000000 0.9989345453217957 -0.022491057154426165
444000000 0.9987842034726679 -0.023233448461370765
450000000 0.9992646680486751 -0.023170069621253286
456000000 0.99923180603974 -0.02368315191044875
462000000 0.9989637635273889 -0.02395528399028368
468000000 1.0031009819444112 -0.019600934653472585
474000000 0.9980519264459153 -0.025079143266823437
480000000 0.9994061555689632 -0.02422826502886691
486000000 0.9984148635135717 -0.025899925966667667
492000000 0.9976140191924977 -0.026863711940278725
498000000 0.9996448290650776 -0.026852371598346483
504000000 0.9978284392032792 -0.02791006212157893
510000000 0.9979115363942712 -0.02802628491369409
516000000 0.9991884911268971 -0.029173533870009115
522000000 0.99809296002398 -0.029859467108605726
528000000 0.9965337490221295 -0.031588426545925266
534000000 0.9985053508693554 -0.031419670859224674
540000000 0.9976687713268549 -0.033560800566255426
546000000 0.9961209032249864 -0.03487504742809072
552000000 0.9968803383450311 -0.034855698272381504
558000000 0.9962371298742118 -0.035609906246103745
564000000 0.9963094762820618 -0.03656635261358186
570000000 0.9964838153070655 -0.038317954529526375
576000000 0.9958337713094977 -0.038677655414196016
582000000 0.9954021808186666 -0.0398913968982792
588000000 0.994895581418812 -0.04147848794737907
594000000 0.9943473596434103 -0.042301799355001765
600000000 0.9953363671697762 -0.04356275292799352
606000000 0.9945451107418343 -0.044611078817776637
612000000 0.9944641887989591 -0.04612154794067753
618000000 0.9939679892506346 -0.04791678911199948
624000000 0.9936710945420235 -0.049217708262363304
630000000 0.993637693270481 -0.05121984128743321
636000000 0.9931210803368044 -0.05237099778775806
642000000 0.993060679695803 -0.053118794040155404
648000000 0.9930378169550136 -0.055655823756792906
654000000 0.993209339805046 -0.05565647628274451
660000000 0.9934238365273799 -0.05729106632788773
666000000 0.9934779831000338 -0.05791678822449103
672000000 0.9929714419479709 -0.05853036308823972
678000000 0.9933131002034368 -0.059617178169229276
684000000 0.993220571640849 -0.06031338645580587
690000000 0.9916794695986585 -0.06270184597603808
696000000 0.9929637831377174 -0.06180088048938671
702000000 0.9901725277146003 -0.06629542100708671
708000000 0.9918764797403004 -0.06468310472846077
714000000 0.9910755814227987 -0.06467272270076874
720000000 0.9919105549441372 -0.06511733420322921
726000000 0.9912491729700741 -0.06673404670158514
732000000 0.9910655782755627 -0.06730459037292362
738000000 0.9916034134993802 -0.06755146120991458
744000000 0.9908911365056444 -0.06907105641579801
750000000 0.9913561998191606 -0.06942786937159867
756000000 0.990450830760201 -0.0699843138842454
762000000 0.9897725487211101 -0.07015299856458633
768000000 0.9898606515416801 -0.07140541962812133
774000000 0.990201108623239 -0.07159790169989765
780000000 0.9923475406193321 -0.07409641095626711
786000000 0.9901589159332729 -0.07232961396077214
792000000 0.9901674870668523 -0.07279880975453298
798000000 0.9902495272408546 -0.07368415162109661
804000000 0.9900667662351846 -0.07379154578605322
810000000 0.9899456505986721 -0.07396513682839016
816000000 0.9896543428548483 -0.07463829257729997
822000000 0.9891853614762908 -0.07547934591617726
828000000 0.9893185529712423 -0.07496034309473575
834000000 0.9902609118351351 -0.07630330275474309
840000000 0.9909949881502894 -0.07699125886715871
846000000 0.9901061708845542 -0.07912784521445197
852000000 0.9905511191171946 -0.07822073667356785
858000000 0.9923763782445053 -0.07837114295542422
864000000 0.9912622070521271 -0.07845654604530884
870000000 0.990071969395502 -0.07916036622672012
876000000 0.9908283142424075 -0.07828467295518418
882000000 0.9908006329700261 -0.08015367324061794
888000000 0.9905869643441311 -0.08223943927499736
894000000 0.9918390327931208 -0.08181615155715403
900000000 0.9925163010423629 -0.08071566429133134
