# HZ S RI R 50
300000000 0.9958465166035942 -0.024581962813583817
306000000 0.9963651419682177 -0.024008182941704818
312000000 0.996017505129177 -0.02431260942109248
318000000 0.9963195253390374 -0.024356717810983246
324000000 0.9971691955114559 -0.023613237193068088
330000000 0.9967383307256534 -0.022699393742569338
336000000 0.9972740701564429 -0.02369696959773548
342000000 0.9971925839916977 -0.02345697082994941
348000000 0.997475325354246 -0.023081201936709404
354000000 0.9971597191504179 -0.022872690952136805
360000000 0.9972788416720346 -0.02236173783821543
366000000 0.9974221630682188 -0.02256437689005421
372000000 0.9980655084372834 -0.02200823128754589
378000000 0.9979164366220354 -0.021887634784948554
384000000 0.9981357823709514 -0.02164790711132574
390000000 0.9991936184934895 -0.020623061813450118
396000000 0.9984182102066953 -0.02185970877242103
402000000 0.9990379889689751 -0.02219658192598089
408000000 0.9987121286140215 -0.022182477234645726
414000000 0.9991186430578646 -0.02206575059481905
420000000 0.9989775441997463 -0.02244542005284154
426000000 0.9985596088374714 -0.02224716043419316
432000000 0.9998059799375948 -0.022585328110129855
438000000 0.9989658564044385 -0.022995564595770557
444000000 0.9991621092954014 -0.022786374046453072
450000000 0.9994248753179595 -0.022596766096960097
456000000 0.9993276133883816 -0.024190648440160056
462000000 0.999296814038364 -0.024556964251885662
468000000 0.9991763793351872 -0.01705835401919049
474000000 0.999137916782281 -0.02371109979272478
480000000 0.9996191099917914 -0.023985419350679122
486000000 0.9994331879716657 -0.02616975567244507
492000000 0.998076980714214 -0.02646379277140727
498000000 0.9992114394652648 -0.026259424420983675
504000000 0.9984861448889 -0.02699700319598703
510000000 0.9984889604024558 -0.028017993455777917
516000000 0.9988714165371699 -0.029191295016479202
522000000 0.9984111232763365 -0.029864283542840774
528000000 0.9964547799271565 -0.03111509043612033
534000000 0.9979025662421167 -0.031327764871325825
540000000 0.9980405448820887 -0.03208780497581762
546000000 0.9968899145885057 -0.03386495420642837
552000000 0.9967850286321516 -0.03394234827135518
558000000 0.9965872082416416 -0.035049423937973494
564000000 0.99706423582173 -0.03557107516897486
570000000 0.9962832210143596 -0.037174052224589395
576000000 0.9955659402082655 -0.0378276671070739
582000000 0.9955275093053083 -0.03922445151245026
588000000 0.9953009980697927 -0.04079555530447478
594000000 0.9950275957308959 -0.041733344207817206
600000000 0.9951118345796415 -0.042940288822421
606000000 0.994651240995915 -0.044162488576371756
612000000 0.9943128269355779 -0.045708607819116544
618000000 0.9940893312966802 -0.047045331989420416
624000000 0.9942923675772853 -0.0478979277164742
630000000 0.9937345240190505 -0.05059654955587247
636000000 0.9931336864868329 -0.05137285595701154
642000000 0.9932421367916826 -0.05196851165857983
648000000 0.9929991551791604 -0.05468754761114322
654000000 0.9923849714090888 -0.05426388155770764
660000000 0.9933207577570853 -0.05638021933165311
666000000 0.9920373051232361 -0.05770650350776637
672000000 0.9928975580861623 -0.05824108185304762
678000000 0.9931911247490232 -0.05945550009048167
684000000 0.9947827777735839 -0.05968828632843196
690000000 0.9923291991696893 -0.05944931805161805
696000000 0.9929720595963557 -0.061089117007707146
702000000 0.994144717721399 -0.0640027023164483
708000000 0.9912207034378353 -0.06393983952061817
714000000 0.9909594614570191 -0.06422570615878383
720000000 0.9922907648036599 -0.06383968384587008
726000000 0.9922152632933212 -0.06555112313630546
732000000 0.9906263928890532 -0.06600927955684234
738000000 0.9917936913808755 -0.06679578584924703
744000000 0.9907750019707244 -0.06919088047842403
750000000 0.9907432999061158 -0.06966282992741912
756000000 0.9906903514270082 -0.06927289001886024
762000000 0.9899323163176689 -0.06901327269817144
768000000 0.9901541864769557 -0.0704854627384477
774000000 0.9903141881630778 -0.07073572487541496
780000000 0.9917086350888529 -0.07071368192847924
786000000 0.9904043373289252 -0.07152210735822805
792000000 0.990254000975524 -0.07245231435607556
798000000 0.990484305509271 -0.07280671905797614
804000000 0.9902594072621791 -0.07304778694468737
810000000 0.9909799975829755 -0.0735291624250339
816000000 0.9904740726637721 -0.07444664122867505
822000000 0.9905104797792709 -0.0742864453095981
828000000 0.989679347458224 -0.0747543421970535
834000000 0.9902258632060336 -0.0766873551171208
840000000 0.9905243079811361 -0.07689079534203888
846000000 0.9898321083511253 -0.07756254298401688
852000000 0.9907802374565683 -0.07752095530265377
858000000 0.9925132371790997 -0.07465175742076008
864000000 0.9914527348494704 -0.07745468661683609
870000000 0.9925996369300776 -0.07888706942752928
876000000 0.992907514289162 -0.07863103779833687
882000000 0.9903654325855903 -0.07999753747890782
888000000 0.989968855527809 -0.08346992162428517
894000000 0.9923618800312467 -0.07838339326661535
900000000 0.9935112992341856 -0.07771175272915672
