# HZ S RI R 50
300000000 0.9958396413462968 -0.021616705053631308
306000000 0.9965012221941146 -0.02202434309983364
312000000 0.9969958903655731 -0.02292510973316769
318000000 0.9970829367710345 -0.02149363165264534
324000000 0.9972669305471824 -0.021309969041060646
330000000 0.996709725105284 -0.020157569332435354
336000000 0.9976251428006957 -0.02110191731706501
342000000 0.9971862811475444 -0.02050951395068157
348000000 0.9976242022976273 -0.020528524315565774
354000000 0.9977277023153511 -0.020411066547595218
360000000 0.9968701215162137 -0.020372904684298702
366000000 0.9978383618629294 -0.01972631414515223
372000000 0.9982689450169844 -0.01986393507857593
378000000 0.9983479108568608 -0.019769189901030212
384000000 0.9983404307406962 -0.019660059929044193
390000000 0.9991014011636175 -0.02044913378916107
396000000 0.9987397259944208 -0.01960453357001884
402000000 0.9984606540859139 -0.019451883141549834
408000000 0.9990866061675755 -0.019806097206673253
414000000 0.99933192133706 -0.019621174595425006
420000000 0.9992208448307197 -0.020532290301053854
426000000 0.9989855637466181 -0.020137010680346
432000000 0.999790998035823 -0.020443006770002773
438000000 0.9994985346003193 -0.020253716971895794
444000000 0.9987986401991106 -0.021429799960572593
450000000 0.9997229785685459 -0.0207863024819195
456000000 0.9985869531544758 -0.021838998372771843
462000000 0.9994611399759447 -0.022420891026921838
468000000 1.0012134253785472 -0.01765889196810384
474000000 0.9992166377655956 -0.02236982309311778
480000000 0.9991052468443606 -0.022623387388422393
486000000 0.9994248912869499 -0.024253076116444287
492000000 0.9975188470227404 -0.025546626750178013
498000000 0.998796142245398 -0.02498111003990104
504000000 0.9985682804926577 -0.026353577812863994
510000000 0.9975846145659669 -0.027091422911405406
516000000 0.9997621576351763 -0.02796849838814437
522000000 0.9983833027877418 -0.028303771928304234
528000000 0.9970700007915917 -0.029674834243022766
534000000 0.9979597583096984 -0.03008791344773858
540000000 0.9978926417592198 -0.03197720343958836
546000000 0.9974111537182588 -0.03319674403752053
552000000 0.9973009113735527 -0.03428319821177221
558000000 0.9971195607110458 -0.03448087473588962
564000000 0.9973074642837441 -0.035908355833992066
570000000 0.9966878707665021 -0.03751090947109008
576000000 0.9963009807694178 -0.038043933822167794
582000000 0.9957896915073038 -0.03961209203345097
588000000 0.9954155704364135 -0.04088621522585751
594000000 0.9950169676365025 -0.04200421048728344
600000000 0.9955599975918896 -0.043649002500949295
606000000 0.9947973902754392 -0.04466769467777571
612000000 0.9942520260685802 -0.04598151330342388
618000000 0.9942976984480191 -0.04783679511569334
624000000 0.9946249113060412 -0.04912134825617948
630000000 0.9937290252003833 -0.05128733096229177
636000000 0.9932015060930872 -0.0522461175924775
642000000 0.9933565031593012 -0.05328244137892599
648000000 0.9937435563716559 -0.05510227141289826
654000000 0.9932752346459214 -0.05628782245165187
660000000 0.9935769622283152 -0.05709810427638516
666000000 0.9931921960972812 -0.05821029323035045
672000000 0.9926840228445735 -0.05911100022553133
678000000 0.9932615979101795 -0.0603663228900592
684000000 0.9926809656780056 -0.059772538776177664
690000000 0.9916112404694316 -0.06154969993803519
696000000 0.99361442979625 -0.06148971782285211
702000000 0.9920128593597866 -0.06293546074125586
708000000 0.991610221743032 -0.06457966426610214
714000000 0.9920376142932674 -0.06515621362448558
720000000 0.9926468311836973 -0.06538068884899396
726000000 0.9923876995555604 -0.06666007082588735
732000000 0.9910746891854867 -0.06694461304297855
738000000 0.9912711428419418 -0.06751523425540226
744000000 0.9917398962386144 -0.06903716973205265
750000000 0.9912109558987451 -0.07015250985609112
756000000 0.9910965219574137 -0.06954699401654221
762000000 0.9906724901591478 -0.06998831320963585
768000000 0.9906910971001139 -0.0704632407053841
774000000 0.9910909306871232 -0.0710463960566454
780000000 0.9926636700887588 -0.07429085809687626
786000000 0.9909511852116446 -0.07149269712648366
792000000 0.9906541618902713 -0.07193675680696576
798000000 0.9913599063556341 -0.072350199177973
804000000 0.9910271814882782 -0.07263219817091804
810000000 0.9914940221482251 -0.07294220757939594
816000000 0.9908041789392283 -0.0739752753451249
822000000 0.9905417924596875 -0.0745575364064924
828000000 0.9898057070685634 -0.07357529569471306
834000000 0.9911460407663009 -0.07532971276986239
840000000 0.9918739494264459 -0.07620807214521262
846000000 0.9905863359532917 -0.07619197648813068
852000000 0.991528194010923 -0.07796872221732615
858000000 0.9933114217517888 -0.07541717966956364
864000000 0.9913965480009008 -0.07687886208127014
870000000 0.9918587927772807 -0.07655612805625485
876000000 0.9943169098666284 -0.07757503721880432
882000000 0.9923584658718496 -0.0749913842511512
888000000 0.9921297836664817 -0.07851855307314382
894000000 0.9943802472503652 -0.07821882538384498
900000000 0.9955940612984321 -0.07669351613416334
