# HZ S RI R 50
300000000 0.9965685985079324 -0.02336709851895514
306000000 0.9960976479731121 -0.023487209987638716
312000000 0.9959263185735697 -0.02212920615198151
318000000 0.9969277720472008 -0.02309488824584306
324000000 0.9970352543026821 -0.022509486992862295
330000000 0.9968725739100839 -0.0217412514416594
336000000 0.9972478224708947 -0.02252477623128662
342000000 0.9979859095892197 -0.022161788070956402
348000000 0.9972926279303594 -0.022006732555874882
354000000 0.9974276953671091 -0.021567348665799648
360000000 0.9977141708935171 -0.021687637779210827
366000000 0.997616268168527 -0.02127894931254338
372000000 0.9979177587123321 -0.02119501805432723
378000000 0.9982376403306554 -0.020756081035033302
384000000 0.9985112168585709 -0.020607084478279858
390000000 0.9979798745287768 -0.02150824348442938
396000000 0.9984664914701988 -0.020826140033935292
402000000 0.9984886706907664 -0.02090117740307896
408000000 0.9989027283369794 -0.02089372199372455
414000000 0.9992367801097842 -0.020839772193130206
420000000 0.9994884640803353 -0.021400260413317076
426000000 0.9988616470844748 -0.021255025528753378
432000000 0.9999315786690606 -0.021433142494587606
438000000 0.9991264338299896 -0.021653777504552513
444000000 0.9995839007002874 -0.022035660391551356
450000000 0.9994662089781697 -0.022233945781868887
456000000 0.9992582489473723 -0.023070601163907214
462000000 0.9989040679768105 -0.023236412607743537
468000000 0.991344245904375 -0.021043144647753274
474000000 0.9988724987607545 -0.023309852728122173
480000000 0.9994476317621663 -0.023405443155193953
486000000 0.999057457203793 -0.025587476185298018
492000000 0.9981134642602051 -0.025599987045430855
498000000 0.9984609049421159 -0.02490127830909941
504000000 0.9980292309178934 -0.026308254771171012
510000000 0.9979984824337529 -0.028339608668765094
516000000 0.9987472350187451 -0.02788169621004083
522000000 0.998650617498446 -0.029490895930560278
528000000 0.9973109175640367 -0.030238524064772142
534000000 0.9982042470943466 -0.0303667535180585
540000000 0.9984224678116368 -0.031957683453182055
546000000 0.9970375826534329 -0.03296821441104211
552000000 0.9969886919022108 -0.03377158898821661
558000000 0.9969570807263459 -0.0348398548436532
564000000 0.9970688161424335 -0.03509286150921548
570000000 0.9964687723197376 -0.03689802527989346
576000000 0.9958499360525209 -0.03780191701191565
582000000 0.9954784347079646 -0.03890827784288864
588000000 0.9952417699331855 -0.040410606667952514
594000000 0.9949056244961141 -0.040925343316725836
600000000 0.9951527205513342 -0.04254614462453597
606000000 0.9948629320655336 -0.04380931666773463
612000000 0.9946861933716379 -0.04528303290423212
618000000 0.9940618561455876 -0.046846093037453615
624000000 0.9945570072344483 -0.04813335385537288
630000000 0.9935619268622405 -0.05037940839114708
636000000 0.9931743585436522 -0.05118998054982678
642000000 0.9936664727975556 -0.05239354880578606
648000000 0.9934654641006075 -0.05437446116411922
654000000 0.9927976036710527 -0.05466848351030511
660000000 0.9933257006180692 -0.055755948332566134
666000000 0.9931997972546126 -0.05734020569386711
672000000 0.9935305849244044 -0.05816125610084177
678000000 0.9933574292796544 -0.05884381996450351
684000000 0.9917620442726856 -0.060037579911407755
690000000 0.9920551695810657 -0.06001609954279574
696000000 0.9936816647991931 -0.06072885589594122
702000000 0.9921504033618175 -0.06440269650846997
708000000 0.992108945905613 -0.06368690497442174
714000000 0.9906415334396776 -0.06351561405454972
720000000 0.992509051122021 -0.06435378502710785
726000000 0.991868365821025 -0.06548772963200929
732000000 0.9907959721607613 -0.06550928138244932
738000000 0.9914623537595916 -0.06688837050487703
744000000 0.9911339254280691 -0.06807982757437132
750000000 0.9911879220621653 -0.06810657581885855
756000000 0.9911362543661282 -0.06887839274985964
762000000 0.9905500248245173 -0.06914256292622939
768000000 0.9904370114855232 -0.06976282156583194
774000000 0.9905644363852932 -0.07021565912967588
780000000 0.9941678777948133 -0.07295169636520106
786000000 0.9906804159132372 -0.07087758221680206
792000000 0.9904798434044021 -0.07144321023401368
798000000 0.9908527555115381 -0.07193461578256694
804000000 0.9908206372511514 -0.07222035393779554
810000000 0.9907226735922973 -0.07272074548152702
816000000 0.9905179629718075 -0.07401897518751115
822000000 0.990615091359895 -0.07324713817698342
828000000 0.9908547444833521 -0.07324684302039144
834000000 0.9907322222827549 -0.07539103600266346
840000000 0.990960633602337 -0.07550495686465795
846000000 0.9913581151061505 -0.07637331414026868
852000000 0.9914171230899254 -0.07714567099181215
858000000 0.993648860029114 -0.0760731905455413
864000000 0.9918506477986254 -0.07665246676241314
870000000 0.991018683291529 -0.07653453037032151
876000000 0.9901073340571737 -0.07562964364802006
882000000 0.9913355536635455 -0.07562051622144032
888000000 0.9935951130941643 -0.07962430261530813
894000000 0.9914114176371707 -0.07863133608477389
900000000 0.9926346822631101 -0.07755206039963988
