# HZ S RI R 50
300000000 0.9958394801130261 -0.02568310743268236
306000000 0.9961682987940784 -0.025477797213877423
312000000 0.9951311201616776 -0.025658575855580838
318000000 0.9964063574849801 -0.025180732712769528
324000000 0.9972140864919086 -0.024594577863299195
330000000 0.9967102413798559 -0.02408697907508908
336000000 0.9968694580341566 -0.02448391124231322
342000000 0.9969903471344933 -0.02444200138265416
348000000 0.9972078781434213 -0.024387642850257744
354000000 0.9971395178684093 -0.024154326944047372
360000000 0.9970341559115093 -0.024497699348455446
366000000 0.9971395193756601 -0.02379903239319893
372000000 0.9974958606988554 -0.02355503970605228
378000000 0.9976830191999712 -0.023631243742049876
384000000 0.9977562032460298 -0.023093887886568777
390000000 0.9984194614333763 -0.02349207370927602
396000000 0.9983408989354559 -0.023677211533778723
402000000 0.9978755247557101 -0.02344922223079142
408000000 0.9982106713626276 -0.023989714264643552
414000000 0.998712645368033 -0.023838940925829142
420000000 0.9985925295124727 -0.024257760069825596
426000000 0.9982259282246049 -0.024466018994134173
432000000 0.9995209529621888 -0.024754076317057
438000000 0.9983416547922713 -0.024682278189388267
444000000 0.9984077922752335 -0.025380250657050487
450000000 0.9989213081928604 -0.02525943862688643
456000000 0.9984217458289645 -0.026158052589598902
462000000 0.9983843378053524 -0.02626255774462515
468000000 0.9975988009674013 -0.021103095857204934
474000000 0.9985260213081822 -0.02708574117451792
480000000 0.9990218702760806 -0.02745758000554152
486000000 0.9979083556972042 -0.029065345048998097
492000000 0.9976696427067528 -0.0293863152496443
498000000 0.9991752116999866 -0.029692943644536732
504000000 0.9979964210583491 -0.03011046221178037
510000000 0.9975978431156958 -0.03128849709541263
516000000 0.9990419563211755 -0.03085715762445497
522000000 0.9979283635253948 -0.03333396927877915
528000000 0.9965163481719397 -0.03447025322560649
534000000 0.9980919570242061 -0.0347903602363664
540000000 0.9979293615711597 -0.03612304763736075
546000000 0.9965622765708128 -0.037242189045161495
552000000 0.9970276194558301 -0.03786965072790459
558000000 0.9960141293354337 -0.03928395389777945
564000000 0.9962054783167178 -0.03985206884438721
570000000 0.9962117985479942 -0.0412745553040075
576000000 0.9951213563399474 -0.04208744657091063
582000000 0.9952658291519442 -0.04374840376919084
588000000 0.9948400327460097 -0.04485269853415111
594000000 0.994644404330824 -0.04542707875979045
600000000 0.9948062392901862 -0.046989635858003774
606000000 0.9939591140890256 -0.048388327297831976
612000000 0.9937382434414552 -0.04986933353313465
618000000 0.993394755098189 -0.05162765501782391
624000000 0.9934379230900745 -0.052207612169186984
630000000 0.9928948909623391 -0.05500682270857885
636000000 0.9926927497817967 -0.05622261834474972
642000000 0.9928812779293931 -0.05719357191509607
648000000 0.9929183508718079 -0.059521460662086495
654000000 0.9929471219972628 -0.060134808312925746
660000000 0.9917166341813104 -0.061437679682214294
666000000 0.9924259963625676 -0.06263370804257616
672000000 0.9921856246485753 -0.06290775796576294
678000000 0.9926792698244364 -0.06410976416045917
684000000 0.9925391762655135 -0.0669132758423445
690000000 0.9913150986508603 -0.06529551701537013
696000000 0.9921965869157242 -0.06615999307365286
702000000 0.991503158394978 -0.06933607634195284
708000000 0.991481347256345 -0.06871666582393281
714000000 0.98984668809784 -0.06876677286767265
720000000 0.9914293515447675 -0.07000695500748338
726000000 0.9907813614701355 -0.06994755050388142
732000000 0.9898489863837233 -0.07154591988378904
738000000 0.990951292520149 -0.0717984577583094
744000000 0.990583709275859 -0.07286890491912089
750000000 0.9898117418130874 -0.07416534400870885
756000000 0.9898962155809423 -0.07440462268180621
762000000 0.9891611940354483 -0.07403293241805353
768000000 0.9890433167523986 -0.07561621321011915
774000000 0.9895544155382809 -0.07558814946874798
780000000 0.9911908919315511 -0.07677771553464403
786000000 0.9894135806055031 -0.07642310786588237
792000000 0.989304606763123 -0.0770277101400064
798000000 0.9896195738301391 -0.0775994867699237
804000000 0.9891602770141622 -0.07800648923955883
810000000 0.9898188636477525 -0.07825064348687037
816000000 0.989227672783843 -0.07954978481780384
822000000 0.9888163139491267 -0.07900563779113547
828000000 0.9894375283281144 -0.08007507303309816
834000000 0.9888173029189171 -0.0813226749045088
840000000 0.989019840156929 -0.08213643133414933
846000000 0.9886035954415188 -0.08216118745391629
852000000 0.9897607567391987 -0.08332791136149659
858000000 0.990932172082251 -0.08249038043351653
864000000 0.9899950563572268 -0.08257322050005034
870000000 0.9891005268326328 -0.08351051968638548
876000000 0.9908115532478384 -0.08156743704480462
882000000 0.986908734644963 -0.08252116620762905
888000000 0.9891871467290237 -0.08405799016433675
894000000 0.9923837139225178 -0.08513621608515151
900000000 0.9904464185336045 -0.08484498244246842
