# HZ S RI R 50
300000000 0.995599871367387 -0.02501349817225848
306000000 0.9961365804792779 -0.025110251678634468
312000000 0.9967541418376107 -0.0243870242062235
318000000 0.9958666874366765 -0.025231079535491658
324000000 0.996812953207647 -0.02458580184684346
330000000 0.9968610355295291 -0.023875568133763975
336000000 0.996755341274832 -0.025024717685515514
342000000 0.9976693041970913 -0.024352596392898
348000000 0.9972384330790249 -0.024307980380255455
354000000 0.9971764863463449 -0.023918027595258556
360000000 0.9960361979560617 -0.023889134754368085
366000000 0.9971288998544757 -0.02396429586637472
372000000 0.9974210515511985 -0.023445402515061803
378000000 0.9978114460024091 -0.023443602799915236
384000000 0.9980452014785023 -0.023610814536957018
390000000 0.9983744060254887 -0.024385046729649404
396000000 0.9982360570215202 -0.023445949388799604
402000000 0.9981628362149335 -0.023221960501894234
408000000 0.9988346793730603 -0.023969547257414712
414000000 0.9988230066016441 -0.023705825008234278
420000000 0.9986875608240343 -0.024570799783137764
426000000 0.9985793517528906 -0.02469624949747617
432000000 0.9990494726226049 -0.024935267854404718
438000000 0.9985637197436944 -0.024648051613396418
444000000 0.998852512054315 -0.025599488608622132
450000000 0.9990069163578028 -0.025398343616413552
456000000 0.9986290163978736 -0.02597378860549592
462000000 0.9984672755224752 -0.02615994878080215
468000000 0.9998641711863752 -0.019818197022060453
474000000 0.9982898773003267 -0.026911813704272695
480000000 0.9992553949338794 -0.028176459756639374
486000000 0.9979126508535805 -0.02856563896674218
492000000 0.997626717345699 -0.029678903973116504
498000000 0.9981793609973834 -0.02949370490957578
504000000 0.9981739303185151 -0.03074153617612372
510000000 0.9978807938420909 -0.03185876094949608
516000000 0.9987624494554119 -0.0317104038629878
522000000 0.9983016910835498 -0.0339316535822576
528000000 0.9962452514864685 -0.03450714142198932
534000000 0.9977894536464034 -0.034856136999234115
540000000 0.9974337286690625 -0.03597852116470273
546000000 0.9964052981262738 -0.037900454856335614
552000000 0.9968153389581821 -0.03810396293140308
558000000 0.9962176996522305 -0.0391207272293478
564000000 0.9963739998818254 -0.04038926165732558
570000000 0.9956023056216691 -0.04183196026450848
576000000 0.9952115034471595 -0.04237021984468494
582000000 0.9952330504142616 -0.043848133279349874
588000000 0.9944270430370431 -0.04521117798664762
594000000 0.994771109327298 -0.04576807394850895
600000000 0.9946941778107445 -0.04750083216510034
606000000 0.9940471212032997 -0.04862621670918727
612000000 0.9937545937429263 -0.05028319168990095
618000000 0.9934252472086533 -0.05181177573665046
624000000 0.9941719733633063 -0.053112801247434976
630000000 0.992764764813392 -0.05545270095745678
636000000 0.9924669647379303 -0.05658844105103886
642000000 0.9925627451982458 -0.058174403597196764
648000000 0.9927620683138899 -0.05937704023261595
654000000 0.9937582875679355 -0.0584229370355698
660000000 0.9925395097454013 -0.06111499673408126
666000000 0.9919150958501274 -0.06252203014670701
672000000 0.9919597296076804 -0.06324071054265654
678000000 0.992416225797419 -0.06429954514374502
684000000 0.9912749625942121 -0.06761282379215947
690000000 0.991757323469985 -0.066254514824986
696000000 0.9928433706822088 -0.06646037893061404
702000000 0.9921798849164735 -0.06810868476338577
708000000 0.9912853486115581 -0.0691381488939055
714000000 0.9900846772489263 -0.06900384433504321
720000000 0.9905727782994449 -0.0696696894832399
726000000 0.991123740619805 -0.07023989574026075
732000000 0.9898953827588368 -0.07179671961030969
738000000 0.9905370908261877 -0.07148088262427317
744000000 0.9901736979128101 -0.07367278496925667
750000000 0.9897895186093091 -0.07448768499803858
756000000 0.9900379368982712 -0.07444005904624439
762000000 0.989292389766573 -0.07496905353288887
768000000 0.9892168719074088 -0.0756069999411295
774000000 0.9893362998970574 -0.07628456466194933
780000000 0.9894502410743815 -0.07517682042380075
786000000 0.989328330083365 -0.07660050431863191
792000000 0.9892573935323168 -0.07729696039318035
798000000 0.9895204457668727 -0.0779217162988982
804000000 0.988727097105048 -0.07757545124397776
810000000 0.9893427164408285 -0.07868354417991577
816000000 0.9892492517549061 -0.07977137988284379
822000000 0.9888290285364086 -0.07937422652753295
828000000 0.9892543207172494 -0.08041530947693494
834000000 0.989431337919345 -0.08056715830538913
840000000 0.9895456577485721 -0.08192824633041319
846000000 0.989015109887119 -0.08238562975038087
852000000 0.9893211522908759 -0.08276990983007618
858000000 0.990797844915597 -0.08163756882454669
864000000 0.9901728038322862 -0.08253417073011401
870000000 0.9897536566656939 -0.08403380406845522
876000000 0.9925220118062589 -0.08273149758758108
882000000 0.9888671556282923 -0.08187323265596874
888000000 0.9900795346133339 -0.08530574047008024
894000000 0.9893700761957788 -0.08669900339535673
900000000 0.9922814348347441 -0.08483535654410218
