# HZ S RI R 50
300000000 0.9966897574457696 -0.022445965568194455
306000000 0.996920226324313 -0.022263506779204977
312000000 0.997320806050712 -0.022168652740948883
318000000 0.9965893671205661 -0.022114219657897935
324000000 0.997767864567643 -0.02156091137891452
330000000 0.9973824079101083 -0.02005153365590476
336000000 0.9977924493270403 -0.02145680513912339
342000000 0.9976203343098385 -0.020839585560201546
348000000 0.9974966797176158 -0.020641668976459596
354000000 0.9975170596047916 -0.02066487982364157
360000000 0.9976314951601783 -0.020591388642216154
366000000 0.9977584199776429 -0.020156676793834732
372000000 0.9983249114121087 -0.020209141845474673
378000000 0.9983206357532671 -0.019832430432934645
384000000 0.998605610228842 -0.020030881678604246
390000000 0.9986429656412918 -0.02039167972848878
396000000 0.9988059101517026 -0.019948792026381196
402000000 0.9985977249394856 -0.019674613412618735
408000000 0.9993504613712924 -0.020333377862292428
414000000 0.9992167286336958 -0.0200854109196242
420000000 0.9994784205696392 -0.020990296655189457
426000000 0.9989055800395601 -0.021081232002274797
432000000 0.9998407808926374 -0.020805177434482378
438000000 0.9992011116489872 -0.020767651569945006
444000000 0.9992377082161403 -0.0218592686327919
450000000 0.9992614358375614 -0.021655119785206095
456000000 0.9992815068471759 -0.021887200708926267
462000000 0.9994188467452284 -0.02286162567241984
468000000 1.0004193456020927 -0.024720445482232456
474000000 0.9987776123075901 -0.022982358533170003
480000000 0.9996559731477505 -0.023921242678357036
486000000 0.9988813492397988 -0.023945341568104423
492000000 0.9974755533385594 -0.025008261463686985
498000000 0.9994967107825276 -0.025223777567806426
504000000 0.9985182060288278 -0.02657227066064201
510000000 0.9989592340728739 -0.02749943815278417
516000000 0.9989572040969634 -0.027817656048863253
522000000 0.9988167996363293 -0.02929674868651091
528000000 0.9969781248792711 -0.03015392681015587
534000000 0.9977251137392965 -0.030995705431425116
540000000 0.9980890102388268 -0.032002513475477105
546000000 0.9968361670465379 -0.03335214195071353
552000000 0.9973039859199108 -0.034115296934132344
558000000 0.9967582843413217 -0.03493102245613301
564000000 0.9968946031463961 -0.035917944858030924
570000000 0.9967379771114357 -0.03738370111614424
576000000 0.9960969169983599 -0.03846858273172098
582000000 0.9960347382776052 -0.03972142052083175
588000000 0.9951674816771541 -0.04110391996506247
594000000 0.9950955131697933 -0.04146795008673164
600000000 0.9951531791642181 -0.043606244742172715
606000000 0.9947671146282958 -0.04486388529190807
612000000 0.99447045476996 -0.04633632416114329
618000000 0.9941861834765507 -0.047786888163929966
624000000 0.9942884398974094 -0.04906428240459776
630000000 0.9936213492734515 -0.051033166959257095
636000000 0.9934905288074188 -0.052733973024810976
642000000 0.9936383101318524 -0.05357885167187448
648000000 0.9935114034176262 -0.05582642681739894
654000000 0.9941122032267649 -0.056372908976417814
660000000 0.9938425818839004 -0.0573869227178937
666000000 0.9932427007289091 -0.05829203969425318
672000000 0.9932547922875821 -0.059589702256330056
678000000 0.9927683666858986 -0.06085130740723858
684000000 0.9923786734069214 -0.05930558927919394
690000000 0.9922344211494325 -0.06218188116228479
696000000 0.9937780268112009 -0.06272321989091179
702000000 0.9946737453191761 -0.06554311873504508
708000000 0.9924261879171681 -0.06520462387627844
714000000 0.9909065597125333 -0.06560919185724513
720000000 0.9920862807799904 -0.06577945071332301
726000000 0.9920587206388244 -0.0674026302217247
732000000 0.9904926819089952 -0.06758821477156439
738000000 0.9915610751187357 -0.06827843400567893
744000000 0.9909097710063591 -0.06980889522049856
750000000 0.9914932923082642 -0.06985180692993519
756000000 0.9907853233274068 -0.07033746920587931
762000000 0.9904951993694128 -0.07059690876780593
768000000 0.990298328276675 -0.07122697788082973
774000000 0.9906836820056282 -0.07186978092235875
780000000 0.9923665166400047 -0.07253016493716008
786000000 0.9908085570394378 -0.07233073506717147
792000000 0.9905514770314842 -0.07287013329046788
798000000 0.9910754523963121 -0.07351556486202884
804000000 0.9906985551272546 -0.07344530791525522
810000000 0.9911836158652162 -0.07391395607931328
816000000 0.9903026087064943 -0.0754292673643354
822000000 0.9905689323011603 -0.07490204619667946
828000000 0.989718766847704 -0.07464766158296482
834000000 0.9906752973926778 -0.07654057327328825
840000000 0.9907684078861326 -0.0757843219315678
846000000 0.9900738002013459 -0.07790294416666384
852000000 0.991105737824367 -0.07809343801798942
858000000 0.9923666341921046 -0.07733037798695609
864000000 0.9914135294786479 -0.07764079640888963
870000000 0.9913772849048369 -0.07802895569885267
876000000 0.9917963465742694 -0.07580500317185913
882000000 0.9910781883722098 -0.08043874995684816
888000000 0.9929069991598746 -0.08155191471989452
894000000 0.9922359910407057 -0.08163711277972054
900000000 0.9920114306820189 -0.08128929842917962
