# HZ S RI R 50
300000000 0.9958614239150763 -0.02627351561179144
306000000 0.9959297473935353 -0.026435009618194526
312000000 0.9962950898610259 -0.027102119059079704
318000000 0.9958654586750267 -0.0261943162882221
324000000 0.9968116323520809 -0.02594311731615318
330000000 0.9967015128031899 -0.025056917362917805
336000000 0.9966780693318039 -0.025894135023272067
342000000 0.9969808387955089 -0.025288968750793808
348000000 0.997033541822696 -0.02560851132560578
354000000 0.996975851170033 -0.025338965940108343
360000000 0.996704006636972 -0.02522232965149459
366000000 0.9969380899490776 -0.024829187466256578
372000000 0.9974301519528642 -0.024621682389799917
378000000 0.9975895064867814 -0.024366632098953612
384000000 0.9976062229268595 -0.024166115227185855
390000000 0.9989595139910423 -0.024465252762843927
396000000 0.9980673232430327 -0.024444863894159577
402000000 0.9980532894583256 -0.024523450517015096
408000000 0.9986460854219822 -0.024870158511392248
414000000 0.9984021539186655 -0.024425733541629836
420000000 0.9983997580033798 -0.0250787483699731
426000000 0.9984090654519351 -0.025163401690232314
432000000 0.9994020040290961 -0.02508828962715807
438000000 0.9983979197704631 -0.02524250026529378
444000000 0.9986369372165628 -0.02581777678470192
450000000 0.9988868883173818 -0.025622375262499532
456000000 0.9985479831628327 -0.02537808364687799
462000000 0.9987736743292135 -0.026677186538495996
468000000 0.9909460389401133 -0.02005691027051767
474000000 0.9981853939569354 -0.027489653149308287
480000000 0.9986029807931537 -0.02722880873686579
486000000 0.998076285673278 -0.02878464220855976
492000000 0.9970013983317447 -0.029531506715491512
498000000 0.9977390544924052 -0.029222474999643703
504000000 0.9973442466076992 -0.030391956297867666
510000000 0.997326405202116 -0.031125903955876718
516000000 0.9992316830684875 -0.03194972443986946
522000000 0.9976264947168557 -0.032596740267571124
528000000 0.9961984173973047 -0.03402568560479778
534000000 0.9972248740044054 -0.033799061880754155
540000000 0.9975968267492773 -0.03505678608682509
546000000 0.9956708819564652 -0.03654984109043141
552000000 0.9962685122368915 -0.037447222834164566
558000000 0.9961568905297982 -0.03787619498878566
564000000 0.9959951694797656 -0.039167326982797505
570000000 0.9954679218981525 -0.04044066835392484
576000000 0.995528298730077 -0.04115959252342272
582000000 0.9947384689203476 -0.04235784172134697
588000000 0.9944093233425887 -0.04385493682768042
594000000 0.9941026833275098 -0.04457366483304066
600000000 0.9945902615482413 -0.04586716646004558
606000000 0.9937043990884965 -0.0469439094695633
612000000 0.9934647778438398 -0.048546710566130295
618000000 0.9931138358058343 -0.04999882863024754
624000000 0.9920486029524623 -0.05165985265115874
630000000 0.9931988583946543 -0.05335565105177677
636000000 0.9920558889922909 -0.05445974154237347
642000000 0.9926077409949431 -0.05578082348770068
648000000 0.9927851085715423 -0.057735971843438844
654000000 0.9908187106644538 -0.057620295707941784
660000000 0.9923358149154113 -0.05930275353022989
666000000 0.9926369464558846 -0.06014172526149536
672000000 0.9919765017207857 -0.06069302655607219
678000000 0.9925215919820927 -0.06243198536423939
684000000 0.9907167873753863 -0.0633206792589484
690000000 0.9905546603935617 -0.06286939483710437
696000000 0.9914257298026561 -0.06479604056524113
702000000 0.9909070217561089 -0.0663121272179584
708000000 0.9908159752097077 -0.0671371069481159
714000000 0.9896055360665829 -0.06726024679702358
720000000 0.9912755456909824 -0.0675441913880338
726000000 0.9907842404087716 -0.06889278290860866
732000000 0.9895880612357844 -0.06923399658889985
738000000 0.9905246634289192 -0.07052508237738869
744000000 0.9899588930884555 -0.07184733632677891
750000000 0.9900426541526558 -0.07244906565699262
756000000 0.9892887141924552 -0.07276232281771926
762000000 0.989061192009802 -0.07314678439207456
768000000 0.9890019648376674 -0.07378487799517106
774000000 0.9891074517622763 -0.07457026866640024
780000000 0.9906724576224342 -0.07783622401883547
786000000 0.989122652422104 -0.07512980595738616
792000000 0.9889644152402153 -0.07562277535010681
798000000 0.9891484434599637 -0.07672486084418062
804000000 0.9889141084620721 -0.07660566615126589
810000000 0.9891171368121463 -0.07699167575447642
816000000 0.9887604412963035 -0.07846075048803201
822000000 0.9890043991504298 -0.07894129079847914
828000000 0.9894090744597442 -0.07885312902475143
834000000 0.9890740345253827 -0.08043275751856309
840000000 0.9894200622689794 -0.08062375410340927
846000000 0.9886333037285325 -0.0804611957411309
852000000 0.9895165743800585 -0.08223630415357085
858000000 0.9902000894353635 -0.08255643569854917
864000000 0.9900449550886318 -0.08290568460489775
870000000 0.9895476969965574 -0.08280835740410107
876000000 0.991365130427191 -0.08271106538332844
882000000 0.9898741808260723 -0.08391824022898997
888000000 0.9904551789852504 -0.08553190805638912
894000000 0.9911058719856628 -0.0854057538856126
900000000 0.9897836876863125 -0.08340991126138347
