# HZ S RI R 50
300000000 0.9965727707747648 -0.02362561079878681
306000000 0.9964606381428376 -0.024480249740781702
312000000 0.9964012999063592 -0.024872958585913214
318000000 0.9966668661011168 -0.023897168342929258
324000000 0.9966952250162213 -0.02334521698014619
330000000 0.9969820235057575 -0.022170114079680163
336000000 0.9971914889833762 -0.023602926373665966
342000000 0.9972678518949403 -0.02292042167292388
348000000 0.9972654562547222 -0.022781759623402287
354000000 0.9972683465244696 -0.022445742591606605
360000000 0.997175208942278 -0.023088619596879564
366000000 0.9975907581025698 -0.022195259534265706
372000000 0.9977624737878723 -0.021954171872327486
378000000 0.9982341435051394 -0.021703951487013453
384000000 0.9986128117171369 -0.02127679617152296
390000000 0.9988980887650806 -0.02117201656135588
396000000 0.9985050284593888 -0.021597481649849183
402000000 0.9982215265578784 -0.020870195334024302
408000000 0.9992614409189567 -0.021898742395776705
414000000 0.9989409687999884 -0.021644427759682675
420000000 0.9991667965865738 -0.022164294455068817
426000000 0.9990256504427771 -0.022213104871578293
432000000 0.9995572858847467 -0.02217921345770214
438000000 0.9994063958749554 -0.02237532447600824
444000000 0.9991856498844763 -0.02260227475615918
450000000 0.9987638095397153 -0.023094811576305073
456000000 0.9990944056025103 -0.023099034140247162
462000000 0.9989516240220168 -0.023923297464131306
468000000 1.0016304122990818 -0.021173991590752547
474000000 0.9994227355627437 -0.024134320439499687
480000000 0.9990584635359486 -0.02317653887376159
486000000 0.9992247904411004 -0.025781201472534092
492000000 0.9971162817620038 -0.02629489938242912
498000000 0.9988593578557494 -0.026310775096319947
504000000 0.9984093134484213 -0.02671090238924151
510000000 0.9982119484590943 -0.028023923587496304
516000000 0.9989442510529634 -0.02810273946538616
522000000 0.9989039377127826 -0.02932759672480172
528000000 0.9969837901189629 -0.029498565359891284
534000000 0.9979337306635392 -0.03115190298625537
540000000 0.998020465507425 -0.031625820762540245
546000000 0.997174159553617 -0.03297997646422693
552000000 0.9974615042380096 -0.033629581704170394
558000000 0.9966956687508176 -0.03414486507133387
564000000 0.9970912549139986 -0.035751933221734214
570000000 0.9969900750556817 -0.036637601956857724
576000000 0.995672585251502 -0.03693536253283649
582000000 0.9956284508619987 -0.03897886338886782
588000000 0.9953950272863191 -0.040111005228638905
594000000 0.9955516785869654 -0.040183124673975126
600000000 0.9956204105445148 -0.04197864295312191
606000000 0.9947637921936983 -0.04304701732386283
612000000 0.9944715511353653 -0.04445956370818807
618000000 0.9941439337899758 -0.04614282380919314
624000000 0.9940152514549419 -0.046121815961823624
630000000 0.993928986866672 -0.049297859001334904
636000000 0.9936187611624603 -0.05068082360007949
642000000 0.9940731575310093 -0.05160861918514077
648000000 0.9936760421280196 -0.054153247983058435
654000000 0.992277460741562 -0.05142351614360977
660000000 0.9935556358890957 -0.05482760094625592
666000000 0.9935326737162351 -0.0562386690972094
672000000 0.9932327264309347 -0.05704005569940856
678000000 0.993282105640504 -0.05849331726848674
684000000 0.9922917170422518 -0.05964163989842895
690000000 0.9928179094896608 -0.05942848660278992
696000000 0.9934407232071322 -0.06030431251972206
702000000 0.9922667451450546 -0.06233705586276878
708000000 0.9923655296812477 -0.06240017549334874
714000000 0.9910325376881128 -0.06255460223315343
720000000 0.9922079751858972 -0.06318806763776924
726000000 0.9919235797250705 -0.06442259743944533
732000000 0.9907853051757471 -0.06426668666041355
738000000 0.991646932813183 -0.06607182651164187
744000000 0.9915333869811569 -0.06714693210976341
750000000 0.9912318208437579 -0.06742619137000795
756000000 0.9901231503546195 -0.06773680750161232
762000000 0.9905275562558202 -0.06826504747505119
768000000 0.9902541226804812 -0.06910725247892262
774000000 0.9904481583813436 -0.06976066871557036
780000000 0.9924392217542303 -0.07202620743605694
786000000 0.990445126475054 -0.07037521769984185
792000000 0.9902365185715072 -0.07076780010530935
798000000 0.9910074132536683 -0.0714693358032796
804000000 0.990605832222299 -0.07166027346256672
810000000 0.9911640490560985 -0.07240116705961168
816000000 0.9906676893087853 -0.07275419052194036
822000000 0.991066665847469 -0.07358910598706182
828000000 0.9906215276255385 -0.07361058551469936
834000000 0.9906211919254072 -0.07510192326421508
840000000 0.9908645790677217 -0.07540094201581954
846000000 0.9900474105225622 -0.0762017027356074
852000000 0.991321137816877 -0.07712951690188508
858000000 0.9927164722094575 -0.07622644033214905
864000000 0.9904901761521419 -0.07565728911168482
870000000 0.9895328028852494 -0.07734940685495592
876000000 0.9934915029529147 -0.0762721015415973
882000000 0.9920320775680265 -0.07816673344340258
888000000 0.99127465244836 -0.08008661572248642
894000000 0.9947974904706877 -0.07956999050819008
900000000 0.9944752587302645 -0.0808957287597059
