# HZ S RI R 50
300000000 0.9956011331669199 -0.027822009819573064
306000000 0.9959558277184967 -0.027847048515485133
312000000 0.9960392777170284 -0.027190832167430973
318000000 0.9959015886262951 -0.02765105110948694
324000000 0.9961909205641257 -0.027368154673108012
330000000 0.9961351120221626 -0.02637308330879299
336000000 0.9961904108162143 -0.027543789266598166
342000000 0.9965776451143905 -0.02699385796901005
348000000 0.9965689355193331 -0.026884782166011614
354000000 0.9965935405699865 -0.026817925860114115
360000000 0.9964252808382162 -0.02682047942275424
366000000 0.9964693638041989 -0.02647032622458733
372000000 0.9969153062008098 -0.026146897582162088
378000000 0.9971156093463746 -0.025994587880797605
384000000 0.9975635923295259 -0.02603432276637979
390000000 0.9976307035509093 -0.026413415284527085
396000000 0.9975319863140247 -0.026059681685786897
402000000 0.9975226574504995 -0.025745643628777994
408000000 0.9980052174038111 -0.026287706387434582
414000000 0.9979662009094558 -0.026359380651346267
420000000 0.9978461827926166 -0.027230112386001988
426000000 0.9977105684978825 -0.026570378110136444
432000000 0.9985487817282321 -0.02687265613095994
438000000 0.998291017977132 -0.0273955701631682
444000000 0.9981851456308481 -0.02754583648933905
450000000 0.9985098033970015 -0.027661790026331234
456000000 0.9981347914146429 -0.028082294544316846
462000000 0.9981016997272661 -0.028350706984773
468000000 1.0003349185277364 -0.024877856148016565
474000000 0.9977152790071709 -0.028995802164847626
480000000 0.99845217233935 -0.02941457666409737
486000000 0.9976730367396223 -0.030485336265099604
492000000 0.9963886847446304 -0.031065874412197176
498000000 0.9978013423682834 -0.031051299525592903
504000000 0.9968264472040295 -0.03220032840088378
510000000 0.9968193496894862 -0.03286407105244232
516000000 0.998253385556056 -0.03357790485723085
522000000 0.9971830653171646 -0.034054160095176526
528000000 0.9952211651759764 -0.03544441488962825
534000000 0.996975210430775 -0.03582371449860897
540000000 0.9965445893587511 -0.03777980516683548
546000000 0.9950523139496315 -0.03888127756018803
552000000 0.9961588794764937 -0.039196439384186856
558000000 0.9949552995570683 -0.039982435942111615
564000000 0.9957939138333184 -0.041288075841134225
570000000 0.9952232226161726 -0.042478740455354304
576000000 0.994475090828049 -0.04296720771525447
582000000 0.9939117333025188 -0.04458035502827313
588000000 0.9937496693451537 -0.04588780640512077
594000000 0.9936475214252977 -0.046226197589489836
600000000 0.993545266362933 -0.04788826635102601
606000000 0.9929071397445873 -0.04936262324505173
612000000 0.9927495853698539 -0.05070853238352881
618000000 0.9923685333429254 -0.05239403038818768
624000000 0.9929926279323543 -0.053772883089739425
630000000 0.9915584575325836 -0.055209269321612686
636000000 0.991509169630999 -0.05682539079993487
642000000 0.9917835722547106 -0.05801715355180586
648000000 0.9916291353374777 -0.06007975538296777
654000000 0.9919233074701979 -0.0604220827375172
660000000 0.992092398551708 -0.062390476582777375
666000000 0.9910393884471177 -0.06354720917488901
672000000 0.9919788596778634 -0.06381834498074451
678000000 0.9918001373649602 -0.06568018885297891
684000000 0.9905021581980036 -0.06452473424721494
690000000 0.9904804556276241 -0.06669530745958353
696000000 0.9913189016409429 -0.06726174043499912
702000000 0.9895744976127506 -0.06819832381903325
708000000 0.9902658801012038 -0.07000449509912472
714000000 0.9886039738260013 -0.0696519154079462
720000000 0.990392415289761 -0.07039867551863241
726000000 0.9903154037576604 -0.07176157260660429
732000000 0.9883959661505981 -0.07189619178194696
738000000 0.9894756523918129 -0.07323266775800032
744000000 0.9892978115353833 -0.0745441840364253
750000000 0.9889207413426239 -0.07597629385335203
756000000 0.988538684499854 -0.07574705421310791
762000000 0.9878451932122495 -0.0762095717188161
768000000 0.9881031204417932 -0.07743995331404538
774000000 0.9880123942576831 -0.07796889606372939
780000000 0.9919208660591454 -0.07865983956389938
786000000 0.9882372129548179 -0.07858042476297511
792000000 0.9877585094555299 -0.07943946407684252
798000000 0.9882102745828991 -0.07998084712308133
804000000 0.9880221289763939 -0.08038353044446882
810000000 0.9886791193467404 -0.08101004615013406
816000000 0.9875463569344455 -0.08255820824386775
822000000 0.9877920772466383 -0.0824124615166798
828000000 0.9872656047400293 -0.08210572419462123
834000000 0.9876301653160475 -0.08375802452194013
840000000 0.9878939671468482 -0.08340466789962951
846000000 0.9862499214355953 -0.08569156469239565
852000000 0.9875519784358054 -0.08649265615266884
858000000 0.9897338368664862 -0.08530953723884274
864000000 0.9880502288537651 -0.08648878283891094
870000000 0.986788921253269 -0.08723187946894415
876000000 0.98778809591951 -0.0837533216703793
882000000 0.9876547836233361 -0.08503266274354629
888000000 0.9880673640160258 -0.08888653380205783
894000000 0.989701340889314 -0.09028182638846408
900000000 0.9894147715857672 -0.0887447652031646
