# HZ S RI R 50
300000000 0.995920795165709 -0.024370606895636842
306000000 0.9964324752374635 -0.024340890120308753
312000000 0.9970618906120436 -0.023458064151057674
318000000 0.9965705873978651 -0.023850320244996455
324000000 0.9968997869344077 -0.023161245596775386
330000000 0.9967116220055297 -0.022837153718691012
336000000 0.9970666245450471 -0.023741175039853932
342000000 0.9972292301126836 -0.02306843673572347
348000000 0.9973942641383671 -0.02256350706504009
354000000 0.9972078520949308 -0.022503791005165523
360000000 0.997633107220912 -0.02197913759322731
366000000 0.9972747904378534 -0.02170802824057813
372000000 0.9980294200909844 -0.021523381181467998
378000000 0.9981687773281014 -0.021398577441458497
384000000 0.9983064860914977 -0.02159800902772797
390000000 0.9982920085239226 -0.02302499006251104
396000000 0.9985140572856662 -0.02126156453212116
402000000 0.9982304456771074 -0.021252017975916842
408000000 0.9988337090070591 -0.021689490192968452
414000000 0.9990174850930467 -0.02148814443137083
420000000 0.9990554246695589 -0.022079022148017394
426000000 0.9984376213805551 -0.022085901713302117
432000000 0.9993676773354054 -0.02162793162394699
438000000 0.9991740229004218 -0.02187475856688771
444000000 0.998991263886839 -0.02227332404274226
450000000 0.9994490967528726 -0.022511948051602993
456000000 0.9990564187311434 -0.022263577587223884
462000000 0.9985879940028041 -0.023027945088970686
468000000 0.9998057940703021 -0.018166098417458528
474000000 0.9984253740747882 -0.023531790710195555
480000000 0.9984782590864614 -0.023466106185752234
486000000 0.9989356778211261 -0.024998200285185002
492000000 0.9981064322677213 -0.025663743789081
498000000 0.9988104551934259 -0.025909242364418047
504000000 0.9978400797482893 -0.026362321442155154
510000000 0.9981914717443924 -0.02671577306872623
516000000 0.9991965508589608 -0.02759886531821527
522000000 0.9978038346453023 -0.029035344499040074
528000000 0.9967283566479588 -0.03001962556997044
534000000 0.9981831273916574 -0.030609925969145215
540000000 0.997230817146002 -0.030896266538029595
546000000 0.9968882552014344 -0.03208705564106809
552000000 0.997490677477147 -0.03298809280503544
558000000 0.9968701935854856 -0.03417841504934727
564000000 0.9964056821153809 -0.03443151324984128
570000000 0.9963788129403938 -0.03611109293548038
576000000 0.9958919255971598 -0.037084788855375764
582000000 0.9955166100252524 -0.03839498709115423
588000000 0.9949315898618891 -0.039872204501946645
594000000 0.9949009730540436 -0.039610340191301024
600000000 0.9954917603829958 -0.04190123878281122
606000000 0.9945694426913165 -0.04280861781764591
612000000 0.9941145972581678 -0.04411950140424846
618000000 0.9939648771154841 -0.04551577659367806
624000000 0.994287830735868 -0.046528878404780386
630000000 0.9935498900794734 -0.04916004146930705
636000000 0.9932468480145141 -0.050521476048507326
642000000 0.9929954455740397 -0.051109896519524585
648000000 0.9929573105609195 -0.05357448086368132
654000000 0.9929143540738904 -0.05286644720394236
660000000 0.9934346740580605 -0.055308334433714704
666000000 0.9925267541749456 -0.05623233013614332
672000000 0.9926496150504764 -0.05725093838675379
678000000 0.9930164148983731 -0.058414294338104196
684000000 0.9918900070493124 -0.05826741300949989
690000000 0.9923032171443309 -0.05992295927923349
696000000 0.9939492320459075 -0.0608093882157381
702000000 0.9932163280381697 -0.06497522308322523
708000000 0.9916123209675326 -0.06360529846599619
714000000 0.9908831423248577 -0.06338187701442918
720000000 0.9924367157682549 -0.06329099644040377
726000000 0.9917015051270852 -0.06502616001006391
732000000 0.9905598338150935 -0.0653818756322807
738000000 0.9915997412303267 -0.06620586051357562
744000000 0.9910063409064312 -0.06765571742568705
750000000 0.9908998500064162 -0.06815752204622283
756000000 0.9900347107027488 -0.06849895461478583
762000000 0.9903539130891928 -0.06876065988961635
768000000 0.9902745362665768 -0.06983473973511266
774000000 0.9900692853859889 -0.07056214019376342
780000000 0.9922425116220235 -0.07159544679636029
786000000 0.9902762960098015 -0.07089760541259456
792000000 0.9900994980870983 -0.07161034399768001
798000000 0.9903944436263306 -0.07182230599192502
804000000 0.9900927112333181 -0.07206646637177558
810000000 0.9906519519229517 -0.0723184701585815
816000000 0.9898958585410885 -0.07385136769437331
822000000 0.9901392227465178 -0.07389015495556403
828000000 0.989812983555984 -0.07446389225313038
834000000 0.9899529437811052 -0.07591581636656632
840000000 0.9907761971891623 -0.07583681523278284
846000000 0.9900003472798993 -0.07669508870868075
852000000 0.9909368169652981 -0.07658766999734712
858000000 0.9921146905886054 -0.07563196727012243
864000000 0.9909542177997476 -0.07778720491447645
870000000 0.9912512357727855 -0.07751836902425877
876000000 0.9897185069905677 -0.07497326181191523
882000000 0.9907222514845762 -0.07577444465113845
888000000 0.9908959065594952 -0.0778110179555599
894000000 0.9917261233809176 -0.07977350135844179
900000000 0.9921123846708758 -0.07804348394098286
