# HZ S RI R 50
300000000 0.9959472837960998 -0.02518025952180776
306000000 0.9959138044294293 -0.025524019300896046
312000000 0.9969500117350534 -0.026308410276946508
318000000 0.9965621279738264 -0.02543087461958323
324000000 0.996583722014377 -0.024898563908437418
330000000 0.9961982665342423 -0.023256170059902083
336000000 0.9966154351384013 -0.02501866241927536
342000000 0.9967404631304775 -0.024694655605741234
348000000 0.9968251112225943 -0.024452063838771382
354000000 0.9969834775296204 -0.023660106496352484
360000000 0.996755237330929 -0.023776335918149892
366000000 0.9971307342182344 -0.023119947974925243
372000000 0.9976743852375761 -0.023396827953700402
378000000 0.9980388876816546 -0.023353010168969606
384000000 0.9982340460597406 -0.023093902998546693
390000000 0.9972825690784743 -0.02199859437092257
396000000 0.9982470729581713 -0.023036981319153618
402000000 0.9982506288178161 -0.022718353822376816
408000000 0.9983420362825485 -0.023214420050646566
414000000 0.9988244428631278 -0.02347330770646276
420000000 0.9986079724413014 -0.023692230368824608
426000000 0.9988789526274767 -0.023759091928401702
432000000 0.9992468679869126 -0.02399451882753533
438000000 0.9984818696803626 -0.02385063204281346
444000000 0.9990843342901125 -0.02427777068313351
450000000 0.9991769744357023 -0.02421170074754031
456000000 0.9984714536284768 -0.02465020455873607
462000000 0.9984790732646526 -0.025473943498280013
468000000 1.0007598144100593 -0.021616072354659427
474000000 0.9981237622402672 -0.02489133409281405
480000000 0.9984201662180965 -0.025443978560070236
486000000 0.9982773224877415 -0.027332944335041413
492000000 0.9977684204041743 -0.027778577825141225
498000000 0.9991654418257262 -0.027219629831121358
504000000 0.9978556875134155 -0.028868189332772173
510000000 0.9977912561999515 -0.029183893607658058
516000000 0.9985516193454369 -0.029828465678813254
522000000 0.9975069014552396 -0.031155119410132333
528000000 0.9960859770657227 -0.03136485180337963
534000000 0.9974570156898539 -0.03222366373861376
540000000 0.9973676361222428 -0.03315668926277154
546000000 0.9967878243098688 -0.03495268641055237
552000000 0.996559697731223 -0.03584836377724998
558000000 0.9960172918526247 -0.03597192134404926
564000000 0.9960939819747869 -0.03746040540713534
570000000 0.9956066969012239 -0.038551323416371845
576000000 0.9950713077968428 -0.03964722158874154
582000000 0.9948150422584051 -0.04125994328262096
588000000 0.9946042847324271 -0.04221174895400791
594000000 0.9958332452851143 -0.043488927580164705
600000000 0.994597407240901 -0.04423660434529117
606000000 0.994117025999005 -0.045489285978513115
612000000 0.9937284887442129 -0.04673994146689968
618000000 0.9931516605906779 -0.0486157279904224
624000000 0.9942635458465816 -0.04921101212593727
630000000 0.9931197690607257 -0.052004863653191194
636000000 0.9926827858023384 -0.05327272104264377
642000000 0.992398950953388 -0.05433695778381837
648000000 0.9926756259635181 -0.05613538119722671
654000000 0.9932158617115833 -0.05698821176927606
660000000 0.9921575122797578 -0.057612325391892975
666000000 0.9923157005140986 -0.05914704274014056
672000000 0.9924053523881142 -0.059994197197336764
678000000 0.9928344262213845 -0.06147337810820709
684000000 0.9904576634275735 -0.06093165208497683
690000000 0.991396657480235 -0.06198696500758219
696000000 0.9920582703670106 -0.06298718224040953
702000000 0.9921627523233162 -0.06583092108754628
708000000 0.991201868240101 -0.06592905190148415
714000000 0.990111520644154 -0.06659813393156863
720000000 0.9910669400083919 -0.06720232038771388
726000000 0.9913433886454495 -0.06857568905332544
732000000 0.9903550021607673 -0.06851553898456994
738000000 0.9907949633540182 -0.06919480987182199
744000000 0.9901978902716573 -0.07036670168966222
750000000 0.9897769452085693 -0.07106663731209228
756000000 0.9892917019270886 -0.07169835949456912
762000000 0.9890938378637093 -0.07203672290706534
768000000 0.9895624934057091 -0.0727492040170049
774000000 0.9897061408871691 -0.07370059650651915
780000000 0.9909019961446032 -0.07492710203439307
786000000 0.9891918897988078 -0.07461991769619476
792000000 0.9892322377446227 -0.07468623573063651
798000000 0.9897035821676597 -0.07543846757496535
804000000 0.9893357034280108 -0.07615816482461167
810000000 0.9900747112519772 -0.07653154689055326
816000000 0.9897279546338714 -0.07697174262783481
822000000 0.989319629855153 -0.07752290097249119
828000000 0.9882379163759473 -0.07698223477218721
834000000 0.989616079023449 -0.07917261737651664
840000000 0.9890415843626253 -0.07929086121101195
846000000 0.9891130221514574 -0.07996792681701788
852000000 0.9900712441900313 -0.08074473672115856
858000000 0.9910995305266173 -0.08165606165701213
864000000 0.9897129463449803 -0.08035891730677078
870000000 0.990693288843469 -0.08099830003136117
876000000 0.9900998020915692 -0.07859642262704318
882000000 0.9903172708614592 -0.08001408971401505
888000000 0.9906621186984119 -0.08393011511496837
894000000 0.991164223077509 -0.08334658523686551
900000000 0.9916436170171836 -0.08112763400412767
