# HZ S RI R 50
300000000 0.9949123651803853 -0.028682480305077165
306000000 0.9950284647813871 -0.02868546376784495
312000000 0.9963032742673383 -0.02858337012031637
318000000 0.9952713741706123 -0.027956113918339614
324000000 0.9960586862661449 -0.028147906941492995
330000000 0.9961722236547753 -0.027607980850639972
336000000 0.9957097580585919 -0.027838856925918868
342000000 0.996408038135784 -0.02776272858229074
348000000 0.9959875417159523 -0.027339961765464597
354000000 0.9959833211008273 -0.027294394762196136
360000000 0.9963924680872088 -0.027299141144455873
366000000 0.9958824197102972 -0.026702380558000057
372000000 0.9969045978700215 -0.02651232689244436
378000000 0.9971824697815969 -0.026553757741595407
384000000 0.9971941467202701 -0.026756389489058636
390000000 0.9973761490096773 -0.02614470380901479
396000000 0.9973774824093049 -0.02679398721444656
402000000 0.9970095497672647 -0.02679425982998113
408000000 0.9977027778972996 -0.027176255382755556
414000000 0.9978632080356843 -0.026844428781019405
420000000 0.9976735934121839 -0.02770781588266645
426000000 0.9975231592698087 -0.027713706770554493
432000000 0.9985058510815592 -0.027692614028157266
438000000 0.9975648614783037 -0.027746422983733633
444000000 0.9982426130201185 -0.028468384085554424
450000000 0.9981215699704419 -0.02784073919500228
456000000 0.9979032237443495 -0.029220550764269965
462000000 0.9979154877839622 -0.029027227575224277
468000000 0.9958794588487798 -0.021605880472745982
474000000 0.9976880291264889 -0.029996741215971186
480000000 0.9979703210336732 -0.029960671173795566
486000000 0.9976825039562475 -0.031884963071929416
492000000 0.9960555192805506 -0.03243099390197245
498000000 0.9976231851248318 -0.0323998880656075
504000000 0.9968703498056216 -0.03329399080097289
510000000 0.9962106056996398 -0.034568780761912665
516000000 0.9976258800220792 -0.03452527995428062
522000000 0.9970348619029926 -0.03593825581036268
528000000 0.9952731317644685 -0.03629589942379802
534000000 0.9961181673816278 -0.03735481388018319
540000000 0.9957918857612511 -0.03850877735906886
546000000 0.9961726167431214 -0.039974845294221927
552000000 0.995413251848734 -0.040198019943225596
558000000 0.99480084633956 -0.041411970072062404
564000000 0.9953344473638845 -0.042416041140441826
570000000 0.9948358090265097 -0.043881179043047835
576000000 0.993811514534084 -0.04425189267149396
582000000 0.9937093581216806 -0.04606264811642676
588000000 0.9932865877558961 -0.04734242130087621
594000000 0.9940513542810846 -0.0484414542069862
600000000 0.9932849970781849 -0.0495954132418562
606000000 0.9926422271920659 -0.05071270920883734
612000000 0.992267053951839 -0.05223541186940345
618000000 0.9919023700062574 -0.053786655629673844
624000000 0.9929788327543608 -0.05536067432636197
630000000 0.9916067229499829 -0.057099906934803164
636000000 0.9911549002391709 -0.0586048298832836
642000000 0.9913448544943776 -0.059330658867156806
648000000 0.9911491253734204 -0.06123673813249257
654000000 0.9904211550082576 -0.06191240661937222
660000000 0.9913151450295051 -0.06356404553594856
666000000 0.9904330568794457 -0.06483045930887754
672000000 0.9905353564508251 -0.06527844964074331
678000000 0.9912812336383836 -0.06666962742484228
684000000 0.9911822932284468 -0.06738161082466708
690000000 0.9896142163314954 -0.06843655060803941
696000000 0.9919384872359387 -0.0680862084118787
702000000 0.9910553644944446 -0.07177827809703656
708000000 0.9903098774437691 -0.0708857313312973
714000000 0.98825029530284 -0.07098508199033818
720000000 0.9896340697726977 -0.07218419343336697
726000000 0.9895026021736819 -0.07283656114155525
732000000 0.9880238919825347 -0.07322175710667894
738000000 0.9887543409849879 -0.07452336035910423
744000000 0.988271669786336 -0.0759295951663752
750000000 0.9883894588912494 -0.07655449869826368
756000000 0.9877135888447204 -0.0767102420512231
762000000 0.9879055638241225 -0.07715497048357886
768000000 0.9875343430757327 -0.07810497811454634
774000000 0.9878371929091204 -0.07876192503242103
780000000 0.9892469095054918 -0.08062910518014788
786000000 0.9875479794485559 -0.07954883801157205
792000000 0.9875626073562517 -0.08028623178848161
798000000 0.9877477530996174 -0.08073676707384789
804000000 0.9870441321271782 -0.08143066363282905
810000000 0.9877811962440186 -0.08171841868244142
816000000 0.9875592490228643 -0.08243507003010013
822000000 0.986966228786595 -0.08226906979126225
828000000 0.9874102135004688 -0.0834994441718967
834000000 0.9872829228275904 -0.0846872098163343
840000000 0.9874052190634706 -0.08536515669344538
846000000 0.9867708918451609 -0.08629806748270946
852000000 0.9882305676210114 -0.086842022224091
858000000 0.9898531990433839 -0.08608885966922719
864000000 0.9878779868529128 -0.08654723017584393
870000000 0.9879172652863141 -0.0870009376393075
876000000 0.988455031289551 -0.08631666965417288
882000000 0.9879684826254709 -0.0876825218393418
888000000 0.9884766948823411 -0.08797611378126372
894000000 0.9897258602366849 -0.0908498961584122
900000000 0.9871556257470949 -0.08897775636104749
