# HZ S RI R 50
300000000 0.9957909058414821 -0.027070101112806576
306000000 0.9956855257687831 -0.027545789747826104
312000000 0.9959821950561702 -0.02746992233936149
318000000 0.9956933420139512 -0.02720174214362886
324000000 0.9963974088497072 -0.026858406243789164
330000000 0.9958746336174729 -0.025902010950425082
336000000 0.9963168165438729 -0.027539278675567883
342000000 0.9963701848576944 -0.02671033736909126
348000000 0.9963317536466458 -0.02646242172444117
354000000 0.9962412698487725 -0.026287016681815364
360000000 0.996358300719937 -0.026884271028113024
366000000 0.9961968836802076 -0.025898428325625923
372000000 0.9968657918255083 -0.02577400696450684
378000000 0.997212999583057 -0.025733533773893157
384000000 0.9970839133128362 -0.025556773364873824
390000000 0.9966202186102585 -0.025547705374030352
396000000 0.997370378413273 -0.02560532177600898
402000000 0.9970546226546535 -0.024795585831641164
408000000 0.9977057128852056 -0.025972178502240345
414000000 0.998148272612524 -0.026065272184598042
420000000 0.9979747772567303 -0.026357871367146363
426000000 0.9974748649248232 -0.026761238835379803
432000000 0.9983225773881539 -0.026733848753522374
438000000 0.9976682110952206 -0.02652993505964114
444000000 0.9980528243000639 -0.027344879129472803
450000000 0.9979875101445137 -0.02759657917214577
456000000 0.998168846225054 -0.027549853688589206
462000000 0.9977092392882867 -0.0283700162320858
468000000 0.9961957086453439 -0.024739920042623348
474000000 0.997443099789516 -0.028895347408191756
480000000 0.9974689478882397 -0.02943417769223209
486000000 0.9974265849603838 -0.030384638140337216
492000000 0.9963001683102315 -0.03145451643386646
498000000 0.9981230179043885 -0.031116827196449932
504000000 0.9968343650125798 -0.03220357541285019
510000000 0.9966509390111694 -0.03304627132600268
516000000 0.9975848281669004 -0.03353426889716559
522000000 0.9968116463276199 -0.03495329378014035
528000000 0.9960733681738699 -0.03585213806801496
534000000 0.9964535587855061 -0.03615584903655893
540000000 0.9968298880322799 -0.03749969265903208
546000000 0.9953969668327164 -0.03869117524269163
552000000 0.9956681373460317 -0.039011266380200346
558000000 0.9948991420851723 -0.040198420618961964
564000000 0.9955197313639349 -0.0414651791651525
570000000 0.9948572597721597 -0.04276967118139506
576000000 0.9941578887786765 -0.04333415458189233
582000000 0.9938769120252404 -0.04505777892032258
588000000 0.9932572970804592 -0.04644588548405844
594000000 0.9933829334836347 -0.04681166648852329
600000000 0.9932765113300038 -0.04830848812973175
606000000 0.9926550524243725 -0.049566732137077935
612000000 0.9925611546108924 -0.05095278285412449
618000000 0.9921596896245813 -0.05261436535402446
624000000 0.9917245105300719 -0.05354939681426651
630000000 0.9918703573309505 -0.0561712657880837
636000000 0.9915675197183788 -0.05733576488830432
642000000 0.9914694752176556 -0.058350924289200225
648000000 0.9910726401125772 -0.0605788730118102
654000000 0.9914594639002515 -0.060523220716676
660000000 0.9910779210792058 -0.06228023423750003
666000000 0.9911639633604066 -0.06304527662772212
672000000 0.9910421927684704 -0.06412397941230655
678000000 0.991461076013784 -0.06544462438053786
684000000 0.9922779188797748 -0.066676990120768
690000000 0.9895657099932647 -0.06673967513938185
696000000 0.9912866846375784 -0.06712705263470752
702000000 0.9919093245676182 -0.07152249138702245
708000000 0.9898386081667067 -0.06994772837806941
714000000 0.9880834535698256 -0.06955196385959803
720000000 0.9896051666384083 -0.07136419207989736
726000000 0.9895293379620352 -0.0714677130031132
732000000 0.9891143028942291 -0.07231052376326823
738000000 0.9894977075653348 -0.0727354805885022
744000000 0.9891812222978048 -0.07504371886305812
750000000 0.9889152222296979 -0.07542525830389984
756000000 0.9880292408747124 -0.07545379034658554
762000000 0.987799011847479 -0.07576437003197169
768000000 0.9876323077809368 -0.07721647410052972
774000000 0.9884648553500557 -0.07738941674118142
780000000 0.9903961708308298 -0.0786808059736805
786000000 0.987868703408091 -0.07830819347393991
792000000 0.9877519574409531 -0.07888184922761736
798000000 0.9878222168234821 -0.07925990117034806
804000000 0.9876618397876429 -0.07963648108263588
810000000 0.9881519092432374 -0.07971486491587715
816000000 0.987659596765224 -0.08185427641844602
822000000 0.9876978227482329 -0.0810586645685197
828000000 0.9878364683341643 -0.08298746405481439
834000000 0.9877173669147954 -0.08307372241261372
840000000 0.9878269059563338 -0.0835746578769863
846000000 0.9870438193989609 -0.08424069816727157
852000000 0.9889390086807628 -0.0852376287215727
858000000 0.9892739576966887 -0.08387364018361339
864000000 0.989208499964483 -0.08517620973132103
870000000 0.9885560477797392 -0.08636430428449338
876000000 0.9898820662216956 -0.08436803003005992
882000000 0.9890268310040637 -0.08621560209150109
888000000 0.9879355638826027 -0.08546063257043006
894000000 0.9890318971935789 -0.08874688864903546
900000000 0.9922752464458867 -0.08633510333731935
