# HZ S RI R 50
300000000 0.9954588486745999 -0.027729803267831026
306000000 0.9955838275231117 -0.027309090342875573
312000000 0.995944613347594 -0.02722144904596472
318000000 0.9959113579500268 -0.027229990623793634
324000000 0.996297002192343 -0.026941302653613858
330000000 0.9947773073180413 -0.026138172511451414
336000000 0.9964115261565634 -0.02738107022617822
342000000 0.9962070933537387 -0.026637243410488783
348000000 0.9964442789449098 -0.026601157690003215
354000000 0.9964297077029695 -0.026435223283827188
360000000 0.996606096354928 -0.02629268892381416
366000000 0.9964084178155677 -0.02548451248408111
372000000 0.9971432353487348 -0.025638846549849683
378000000 0.9972787492567456 -0.025416193488701232
384000000 0.9972492584899048 -0.025505928607481906
390000000 0.9979140978847314 -0.02540585842323962
396000000 0.9977684018012223 -0.025575876297146142
402000000 0.9975242880697696 -0.025279411684098946
408000000 0.9980568119341996 -0.025879080365720182
414000000 0.998261371699747 -0.02572737402151164
420000000 0.9980512029955162 -0.0259334282852346
426000000 0.9977152542540906 -0.02637902943189563
432000000 0.9986158826866083 -0.02633828993588841
438000000 0.9983450313327511 -0.026557162717706445
444000000 0.9979611045521559 -0.026706080110784628
450000000 0.9986573099536782 -0.026630089961797086
456000000 0.9980251771712116 -0.027749863301993874
462000000 0.997941276695108 -0.028265199419041407
468000000 0.997376878233089 -0.023164945715171414
474000000 0.997699460017795 -0.02807217620433422
480000000 0.9981904733207071 -0.02848450472370706
486000000 0.997661389165564 -0.030365396995183095
492000000 0.9967402728403777 -0.030911154232548376
498000000 0.9973315820515989 -0.030557216077918014
504000000 0.9967239759612552 -0.031441157049983
510000000 0.9965789642017426 -0.033060294577676785
516000000 0.9983093334027389 -0.032294413327692235
522000000 0.9972641529985664 -0.034744039557040536
528000000 0.9956014164804748 -0.0348617177177641
534000000 0.9965827382528087 -0.03536260475844128
540000000 0.9963534008269671 -0.03659411831494179
546000000 0.9956666688942857 -0.037428440122749665
552000000 0.995653803684865 -0.039178545170962704
558000000 0.9951507574667969 -0.03980624085831414
564000000 0.9955457091565433 -0.040805583463348775
570000000 0.9952749167965719 -0.0417842855445543
576000000 0.9942289620465249 -0.04276040329908644
582000000 0.9943245121134211 -0.04429107819034177
588000000 0.9937046634303723 -0.04541378862011087
594000000 0.9938321019115584 -0.0463816653253461
600000000 0.9939364686985036 -0.04762720643901876
606000000 0.9930486625643455 -0.048902729424699705
612000000 0.9928472187610419 -0.05025891815856054
618000000 0.992438816603208 -0.05188086646050409
624000000 0.9932947197954117 -0.05264911674956427
630000000 0.9920220766651769 -0.05508437887705937
636000000 0.9916004357113479 -0.056929178649597234
642000000 0.9918430715015248 -0.05748689500637711
648000000 0.9917816199936357 -0.059192078959099295
654000000 0.9925316378784713 -0.06197159823536735
660000000 0.9919237785671992 -0.061493529640676795
666000000 0.9908918174563762 -0.062469354338390466
672000000 0.9918486955494354 -0.06288216325640657
678000000 0.9911664323702413 -0.06457998297457658
684000000 0.9927047202715414 -0.0669608238273511
690000000 0.9904351807660121 -0.06610165259344465
696000000 0.9919729411204055 -0.06662846677693834
702000000 0.9912655434431872 -0.07209161812335675
708000000 0.9906829248829958 -0.06938855744224054
714000000 0.9889188365294869 -0.06970584250678669
720000000 0.9905429257350622 -0.07081717327419491
726000000 0.9901630740141485 -0.07134307248906298
732000000 0.9885695076647839 -0.07116721621851184
738000000 0.9892793593196111 -0.0724631908904275
744000000 0.9893413055574297 -0.07402012387630914
750000000 0.9889549601000441 -0.07531131164205235
756000000 0.9886022125108173 -0.07517380840279662
762000000 0.9886867148475218 -0.07529384203820906
768000000 0.9882810973187554 -0.0761530159916517
774000000 0.9883708141135 -0.07664558490433357
780000000 0.9919182673485134 -0.0787406471968177
786000000 0.9880630166933931 -0.07772558473198221
792000000 0.9879762587002299 -0.07834175701739132
798000000 0.9883930564193012 -0.07884954522690274
804000000 0.988278105870562 -0.07897126363648205
810000000 0.9885291958878875 -0.07934620339261134
816000000 0.9884633013788373 -0.08059258449528439
822000000 0.9880567979688055 -0.08068085894118758
828000000 0.9877348405654999 -0.0813236401682911
834000000 0.9874820670542184 -0.08253468918569683
840000000 0.9879622738478143 -0.08320928951644359
846000000 0.9877666107548098 -0.08405149187435876
852000000 0.9892274163790014 -0.08483138435778487
858000000 0.9912472080667732 -0.08505803553223976
864000000 0.9891395025048383 -0.08488184601783268
870000000 0.9885083811065315 -0.08677043967130268
876000000 0.9896947668718651 -0.08424447050702662
882000000 0.98746631801504 -0.08470859004292199
888000000 0.9901034471190462 -0.08776751869635988
894000000 0.9910041909250219 -0.08684818568083458
900000000 0.9907333814201769 -0.08711392120705748
