# HZ S RI R 50
300000000 0.9964445558349716 -0.02574857097621832
306000000 0.9956803826554926 -0.02578305847374427
312000000 0.9977355090371425 -0.026081543559450762
318000000 0.9962690660415604 -0.025805747666372187
324000000 0.9961725404677083 -0.02536966816999768
330000000 0.9971102109669575 -0.024387968288524187
336000000 0.9966687754601963 -0.0255022832822273
342000000 0.9968537312797154 -0.0248323273999613
348000000 0.9970232505860905 -0.02512051385449313
354000000 0.9970346251437244 -0.02476466147252278
360000000 0.9967090533701622 -0.024438001384445945
366000000 0.9967798857988985 -0.023719365577039617
372000000 0.9973959561320038 -0.0239105589484344
378000000 0.9975867030673642 -0.023829649499937534
384000000 0.9979029990033117 -0.023859640563266175
390000000 0.9981806582820816 -0.024161438490233653
396000000 0.9980164277948594 -0.023942407071180637
402000000 0.9981389367847221 -0.023973099558169886
408000000 0.9982422978908962 -0.024223047153746957
414000000 0.9987337649943591 -0.023679448295308717
420000000 0.9986291614078204 -0.024490932134600386
426000000 0.9983297894220345 -0.024702586733614165
432000000 0.9990954724623394 -0.02472793863587494
438000000 0.9986530616441852 -0.024951044484073138
444000000 0.9984016155336924 -0.02530161588134232
450000000 0.9987742147569558 -0.02515460120580358
456000000 0.9982000208484668 -0.025599747638888046
462000000 0.9982173395132979 -0.026091545926387415
468000000 0.9970482015876813 -0.02753668950928598
474000000 0.9986000183077677 -0.02645720173817848
480000000 0.9983778160361279 -0.027121828703283998
486000000 0.9981621293401678 -0.02812965435786493
492000000 0.9970266504958725 -0.02884153267892693
498000000 0.9981350850797951 -0.028621306015284374
504000000 0.9975232865225379 -0.029643780268589746
510000000 0.9975933759865968 -0.03020171072042423
516000000 0.997879729481733 -0.030891421987983083
522000000 0.9978914946956745 -0.03201434432979613
528000000 0.9967363557916967 -0.03308630123215431
534000000 0.9978608547729471 -0.03367118167294153
540000000 0.9975330548200857 -0.034659663353696704
546000000 0.9958750449931707 -0.036282161043872226
552000000 0.996522477596366 -0.03655743051099309
558000000 0.9959480433649668 -0.036978313740859185
564000000 0.9957793010470148 -0.03900243466038433
570000000 0.9955524733360526 -0.039815754838968445
576000000 0.9951841559653528 -0.040467156299907055
582000000 0.9948087464001678 -0.04208678620478978
588000000 0.9941851018074459 -0.04334073678331129
594000000 0.9937587817691905 -0.043673912891516606
600000000 0.9944521568153879 -0.04573807875376132
606000000 0.9937168051833152 -0.04665373893996815
612000000 0.9935263894015017 -0.04802001606240775
618000000 0.9931714612327548 -0.049681276796723746
624000000 0.9924387255349264 -0.05115470058795322
630000000 0.9927932963965285 -0.05305742560915206
636000000 0.9923380748940869 -0.05425293122935152
642000000 0.9923058729112972 -0.05531511898609941
648000000 0.9918083209199128 -0.057052302361120515
654000000 0.9929160124592066 -0.05720269588310535
660000000 0.9921308531621268 -0.058787365797326414
666000000 0.9914885499192647 -0.060481023723828214
672000000 0.9916336110867946 -0.060535345994497385
678000000 0.9922095139788252 -0.06176030587864345
684000000 0.9931779159518758 -0.06390726537903642
690000000 0.9910551854586984 -0.06339359072800538
696000000 0.9918831741249515 -0.06459049948484533
702000000 0.9923272445713566 -0.06618978574807324
708000000 0.9906833030868276 -0.0664404588517545
714000000 0.9901144330507319 -0.06750889924356032
720000000 0.9910936057336723 -0.06729617967128709
726000000 0.9909522739331633 -0.06854530175465037
732000000 0.990057107194422 -0.06868748149788911
738000000 0.9898051597499201 -0.0698419982906511
744000000 0.9901494074568148 -0.07109080888627466
750000000 0.9900843677296608 -0.07193356506083273
756000000 0.9890664875124736 -0.07228137055231841
762000000 0.9891097603695403 -0.07234225733469042
768000000 0.9890495590626599 -0.07379254168387413
774000000 0.9892567946447368 -0.07404828736238808
780000000 0.9904720387643677 -0.07469615292662399
786000000 0.9890693093082406 -0.07462781034676805
792000000 0.9890888809216344 -0.07527248427596749
798000000 0.9890451557611595 -0.07558859990454829
804000000 0.9891223440620105 -0.07637825217542688
810000000 0.98935515497271 -0.07624945711518001
816000000 0.9892691250307547 -0.07738346243493328
822000000 0.9894268339560014 -0.07801323352630615
828000000 0.9890125401531378 -0.07836894428426462
834000000 0.9892786297308545 -0.07883611426956173
840000000 0.9899986029704769 -0.07871543542637711
846000000 0.9883853979323777 -0.08043647545258956
852000000 0.9899197482094467 -0.08148515811808549
858000000 0.9901166225141397 -0.08076267266104181
864000000 0.9892551320581016 -0.08061511678508082
870000000 0.989743746183737 -0.0814204108620085
876000000 0.9905366813230047 -0.08013179068743577
882000000 0.9895619775832962 -0.08179577575681304
888000000 0.9894413080506034 -0.086156232298969
894000000 0.9907174931231837 -0.08446222166161944
900000000 0.9928731547519162 -0.08345372743228754
