# HZ S RI R 50
300000000 0.9959615640717685 -0.026770235154551396
306000000 0.9957117192859242 -0.026801216411282924
312000000 0.9962401688988977 -0.026655985326682584
318000000 0.9958397706214911 -0.0266344334116417
324000000 0.9960462620632374 -0.026591190890240885
330000000 0.9960808898442636 -0.02524793838152794
336000000 0.9963784422709597 -0.02644147396604817
342000000 0.9963928433541965 -0.026112762252631264
348000000 0.9965046390122352 -0.025389294104789118
354000000 0.9965305830070632 -0.025248728724788838
360000000 0.9970669496214503 -0.02514302546195648
366000000 0.9970228625174581 -0.024981973217235443
372000000 0.9974289238165835 -0.025059673753267567
378000000 0.9974939494046763 -0.02467423971428841
384000000 0.997712038482456 -0.024526812626918137
390000000 0.9967731938390092 -0.025893018060905788
396000000 0.9978014618549432 -0.024938733431344857
402000000 0.9974857174459774 -0.024405078250123346
408000000 0.9978975523150453 -0.025018952064822457
414000000 0.998442240883821 -0.024749855369123892
420000000 0.998395987105805 -0.02534678677278108
426000000 0.9981688153339169 -0.02547412221077912
432000000 0.9988141779392381 -0.025393715687690006
438000000 0.9983067384689377 -0.025625321970040537
444000000 0.998288882836475 -0.026463058612164216
450000000 0.9982313082637678 -0.026290488529435035
456000000 0.9981216222819133 -0.02648035766332413
462000000 0.9980882099835041 -0.02728497484051183
468000000 0.9934497148237218 -0.02027940149607125
474000000 0.9977637666257657 -0.027075415717918674
480000000 0.998475695279746 -0.027949959858303206
486000000 0.997774198558447 -0.029213639334028818
492000000 0.9968108538762145 -0.02992960741149747
498000000 0.9980404689751443 -0.02912821700843699
504000000 0.9973810454432478 -0.030542336729730325
510000000 0.9966088054331996 -0.03125490649598344
516000000 0.9982226561840737 -0.031485448161771526
522000000 0.9972528070085045 -0.03331137604678701
528000000 0.9957395324559233 -0.033919976612582836
534000000 0.9968275822078269 -0.03430905668259665
540000000 0.9969133509924143 -0.03677652002562946
546000000 0.9957679786541467 -0.037818667655875486
552000000 0.9959430297797572 -0.03791373481407005
558000000 0.9953572177502051 -0.03864304950631047
564000000 0.9956869860498458 -0.03985776145368371
570000000 0.9951313072570666 -0.04120209640744651
576000000 0.9945500445566393 -0.04192124555564882
582000000 0.994328995610159 -0.04346122628977607
588000000 0.9936667859553932 -0.04464131171268385
594000000 0.9936665346831569 -0.04539135868566408
600000000 0.9938200263589243 -0.047019562259296696
606000000 0.9932349263752861 -0.04814412308597137
612000000 0.9929246287595651 -0.049476701682780684
618000000 0.9924830741536261 -0.050948941183431
624000000 0.9923753078390907 -0.05285553550555589
630000000 0.9915973969817379 -0.0541596881102074
636000000 0.9916543817917667 -0.055862932017374696
642000000 0.992085793788111 -0.057191625706343174
648000000 0.9912617431574184 -0.05878856847807606
654000000 0.9919656103168765 -0.05789928162016479
660000000 0.9922672159742562 -0.06127727985519272
666000000 0.9915370182217794 -0.062312270566739075
672000000 0.9910107649398204 -0.06327613485215579
678000000 0.9912099564947294 -0.06437947433213413
684000000 0.9906407713793693 -0.0652491245330561
690000000 0.9904570904745902 -0.06562741768184892
696000000 0.9912345034246847 -0.06631673731253969
702000000 0.9917339086551659 -0.0694716004364332
708000000 0.9899756008952055 -0.06937288762129683
714000000 0.9898818351247003 -0.06957051392966634
720000000 0.9901779100095661 -0.06992279058119022
726000000 0.9895734706467544 -0.07094037072623435
732000000 0.9886585780228377 -0.07147173565743828
738000000 0.9898728142137885 -0.07249904891528783
744000000 0.989910118936024 -0.07396809954616923
750000000 0.9892103142749834 -0.07416059697992768
756000000 0.9887363856941161 -0.07503389452710545
762000000 0.9883201672966504 -0.07528896946894724
768000000 0.9880109820331602 -0.07604550234918063
774000000 0.9881036645100949 -0.07681569095563653
780000000 0.9897744286614094 -0.07860389614591773
786000000 0.9881094033153469 -0.07744222743892966
792000000 0.988000198245397 -0.07822569027247361
798000000 0.9883831581604043 -0.07918492257289265
804000000 0.9883250087098503 -0.07888029678502576
810000000 0.9885273912134738 -0.07956416218767073
816000000 0.9883608845466372 -0.08102404985356096
822000000 0.9876261058942599 -0.08098315683197979
828000000 0.9875577156366195 -0.08026760650782955
834000000 0.9879829593494446 -0.08201527748971978
840000000 0.9878477574416333 -0.0823568569301877
846000000 0.9885427161833455 -0.08333968877727563
852000000 0.9891606918595891 -0.08464437910709667
858000000 0.9895208534039297 -0.0838171756246659
864000000 0.9890368803415001 -0.0847786883452829
870000000 0.9885418031966224 -0.0847063848661769
876000000 0.9890686819717928 -0.08381124293475518
882000000 0.9879927398976966 -0.08321287831248558
888000000 0.9891614604056126 -0.08614462950876137
894000000 0.9887706355449828 -0.08698284432595642
900000000 0.9891071121132642 -0.08613730986572045
