# HZ S RI R 50
300000000 0.9958514882912562 -0.02673201936224314
306000000 0.9958505547532676 -0.026918339486093224
312000000 0.9953530694150027 -0.02686280285577177
318000000 0.9962365387645261 -0.026888109598317195
324000000 0.9964859584574327 -0.026663676525156693
330000000 0.9959297719820517 -0.025828108622257845
336000000 0.9965831658712686 -0.02668746227563553
342000000 0.9968060286927862 -0.026375809945634796
348000000 0.9968853534135698 -0.02622763428141056
354000000 0.9966383303905264 -0.026188037214204967
360000000 0.9965066336745219 -0.026342482496817674
366000000 0.9965322721942476 -0.025425346786414022
372000000 0.9971683387051345 -0.025345635806298873
378000000 0.9973986131610416 -0.02492418991932709
384000000 0.9976704061861968 -0.024987866860074714
390000000 0.9989095019765999 -0.026596416662463828
396000000 0.9977249843956874 -0.025330835469055582
402000000 0.9980985850733486 -0.02616473857841101
408000000 0.9979559646088794 -0.02545839153239144
414000000 0.9981930140762391 -0.02540793986668513
420000000 0.9984118190990123 -0.025775680635177566
426000000 0.9979593715189982 -0.0262625170345645
432000000 0.9986991531278784 -0.026368686585995532
438000000 0.9977152216317281 -0.02629226264034312
444000000 0.998129993555131 -0.02698216618523957
450000000 0.9981060131469732 -0.026897433562854376
456000000 0.9983208163574256 -0.02736224788755995
462000000 0.9979477261398728 -0.028044109923174996
468000000 0.9969494895413916 -0.023037652839517232
474000000 0.9974991894782893 -0.02850200926879416
480000000 0.998432885566559 -0.02825743427337525
486000000 0.9973859988358085 -0.029468068291314202
492000000 0.9967786639193155 -0.030212504265579258
498000000 0.997453089304301 -0.030672414051374754
504000000 0.9971367842059389 -0.03212271459623058
510000000 0.9973394029553163 -0.031821490911226546
516000000 0.9990256506409517 -0.03381175450268151
522000000 0.9976761346759987 -0.033798332457609624
528000000 0.9956737883483249 -0.03489683825281065
534000000 0.9965008823113009 -0.03587469777943776
540000000 0.9971228692218208 -0.03707425459381849
546000000 0.9964627961492996 -0.038645110324146255
552000000 0.9956010629024823 -0.038630481097059334
558000000 0.9950042713529376 -0.03915650240422946
564000000 0.9955301596303805 -0.04064332429966743
570000000 0.9953497136389747 -0.04197953550162224
576000000 0.9945067993825055 -0.04265514855317631
582000000 0.9944000174236859 -0.04421715327503681
588000000 0.9935422894473946 -0.045610528043641047
594000000 0.9940732316079844 -0.04612542197569682
600000000 0.9939473621402853 -0.04752615206007049
606000000 0.9933660820938147 -0.04897593444386121
612000000 0.9930259016765602 -0.05033157038175996
618000000 0.9927329758523439 -0.051921099371397876
624000000 0.9922911911561697 -0.05297325930265099
630000000 0.9921644572666951 -0.055317658710471874
636000000 0.9919694284964584 -0.05677356393491921
642000000 0.992360976489044 -0.05729159742961336
648000000 0.9916025613282035 -0.05916737058744013
654000000 0.9927065835166273 -0.06054217063106075
660000000 0.9909873896708179 -0.06142106281241591
666000000 0.9919574243188413 -0.06212477539723724
672000000 0.9915288491222098 -0.0632309024622866
678000000 0.9920554940477679 -0.0644730587691378
684000000 0.9914720501043677 -0.06549571648224979
690000000 0.9909604259862165 -0.06620976725580795
696000000 0.9920899191094267 -0.066814840826141
702000000 0.9911583246314817 -0.06630328581174304
708000000 0.990837956129239 -0.06888558627808242
714000000 0.989049270530037 -0.06996976310899884
720000000 0.9907809022138927 -0.07000759992395675
726000000 0.989986878914635 -0.07094469758746785
732000000 0.9892564584318366 -0.07138487868467941
738000000 0.9893729481063206 -0.07204836769913028
744000000 0.9895747031762935 -0.07357477503989952
750000000 0.9889078708977415 -0.07437246287566329
756000000 0.988420807666166 -0.07435386023190912
762000000 0.9885111980267332 -0.07485047164482078
768000000 0.9882199711769177 -0.07578305246323962
774000000 0.988409404721844 -0.07634914029373778
780000000 0.9895812151230614 -0.07738477449168259
786000000 0.9885121109064667 -0.07716555123471507
792000000 0.9884513808091231 -0.07771443237194317
798000000 0.9888958993371286 -0.07812568794384031
804000000 0.9883484142060667 -0.0785053372864002
810000000 0.9890038632200884 -0.07889415062550716
816000000 0.9882723813303904 -0.08084568087790736
822000000 0.9880114482879918 -0.08075581882868592
828000000 0.987771565899965 -0.080376990668149
834000000 0.9883829000346797 -0.08242409034696466
840000000 0.9882449191957707 -0.08272212173755031
846000000 0.9890330703039474 -0.08277690840857625
852000000 0.9891513871050348 -0.08441070241011105
858000000 0.9897299608390864 -0.08242912233183426
864000000 0.9891233821015221 -0.0836734471725214
870000000 0.9899424549090841 -0.08462738827715965
876000000 0.989388205046404 -0.08424757833320654
882000000 0.9886194360576555 -0.08465071852413661
888000000 0.988173075330899 -0.08614629026783453
894000000 0.9892809478084069 -0.08811721022375996
900000000 0.9909878920090397 -0.08414171730162309
