# HZ S RI R 50
300000000 0.9948327762282958 -0.028029342785271773
306000000 0.9955033471235064 -0.02824545814231011
312000000 0.9966907845708708 -0.027511749905097107
318000000 0.9957047644895161 -0.028296238782422534
324000000 0.9962973437715513 -0.027885453370357798
330000000 0.9959347787279424 -0.0267990086077376
336000000 0.9957336716094431 -0.02775477573453001
342000000 0.9964281188675544 -0.02757092811118613
348000000 0.9962667059728407 -0.027473385704355948
354000000 0.996165923987066 -0.027139979075849887
360000000 0.995952281166487 -0.027307104019211013
366000000 0.9958706061265465 -0.027288294788173396
372000000 0.9965742783335518 -0.026733306274183487
378000000 0.9968628673740588 -0.026670914483935906
384000000 0.9970349272908721 -0.02651060280924624
390000000 0.9971941778948219 -0.02701409271502238
396000000 0.9972944755895152 -0.02679720359428935
402000000 0.997662604468096 -0.0266230501793055
408000000 0.9977673344570237 -0.026789964363956625
414000000 0.9974959147224496 -0.02681336909428493
420000000 0.9978326981011424 -0.027573750553555865
426000000 0.9973633718872206 -0.02743089207152599
432000000 0.9982740258107411 -0.02770113927813113
438000000 0.9981094281478695 -0.027884332747570097
444000000 0.9974493216095127 -0.028327853596545768
450000000 0.9978011694719211 -0.028637440569537022
456000000 0.9974255766996064 -0.028427723928156203
462000000 0.997852984710458 -0.029077250124914363
468000000 0.9914722667382628 -0.03004319828531101
474000000 0.9971553797360375 -0.02938360195034857
480000000 0.9980134294755347 -0.030352229424271005
486000000 0.9965536790494658 -0.03154388379501633
492000000 0.9959425620158155 -0.0320350654682279
498000000 0.9970960119247505 -0.03256578465335814
504000000 0.9963214455814313 -0.033305148390086116
510000000 0.9962504242329563 -0.03407515949802643
516000000 0.9970075214874975 -0.03426073575248095
522000000 0.9973055350771215 -0.036134414192257804
528000000 0.9952438915138605 -0.036688441772571606
534000000 0.9967578085966011 -0.03667869112593389
540000000 0.9963327453131828 -0.03838883466134107
546000000 0.9947104343076817 -0.04031341785690285
552000000 0.9957942738276737 -0.04048513971030969
558000000 0.9945716665798657 -0.04147387617768026
564000000 0.9952541304854151 -0.04248482030155788
570000000 0.9943554270578326 -0.0438059252556797
576000000 0.9939529132357381 -0.04412481209645656
582000000 0.9937053351995511 -0.0459282826516513
588000000 0.9928689271605129 -0.04721329581038296
594000000 0.9925118581587293 -0.04745418778922353
600000000 0.9930503775014983 -0.049327670387590526
606000000 0.9926914562448552 -0.05070985987201993
612000000 0.9923361094905915 -0.05221671948013238
618000000 0.9921666382530093 -0.05382905397396732
624000000 0.9912527671056801 -0.053682506305907256
630000000 0.991098289704012 -0.05699847125140347
636000000 0.9910016653710104 -0.05824421188405279
642000000 0.9914056581816849 -0.05906426150285823
648000000 0.9911754016890577 -0.06170147951488937
654000000 0.9928990255039015 -0.0626892538541375
660000000 0.9908431409893225 -0.06296285665381704
666000000 0.9906954412378102 -0.06419933833115384
672000000 0.990751902655305 -0.06486065676010086
678000000 0.9907442192950845 -0.06653807000943504
684000000 0.9906138292464712 -0.06820512697309959
690000000 0.9899667509210102 -0.06816324949383468
696000000 0.9913222063790696 -0.0685625653796133
702000000 0.9903240654204049 -0.07256366065698899
708000000 0.989612721644448 -0.0711539724712894
714000000 0.9885779936898837 -0.07223586024260825
720000000 0.9892638656293327 -0.07217575771928654
726000000 0.9896261389690704 -0.0734553640922208
732000000 0.987743433205906 -0.07398753629826663
738000000 0.9892042725817524 -0.07506024112621831
744000000 0.9881717781897679 -0.07637065358665981
750000000 0.9875316755075833 -0.07687297427186787
756000000 0.9875323573378952 -0.07718084740626761
762000000 0.9872717172789907 -0.07732227359561337
768000000 0.9871436847094377 -0.078250067193182
774000000 0.9876828435898225 -0.07891226389421227
780000000 0.9898249808180466 -0.0788064007099258
786000000 0.987284549216062 -0.07992818320709734
792000000 0.9871532630886842 -0.08051896820159539
798000000 0.987187961815743 -0.0810659884718305
804000000 0.9872614010465554 -0.08164707924269227
810000000 0.9876403021518568 -0.08212541605699095
816000000 0.9866829974869904 -0.08333436739200534
822000000 0.9867173732354575 -0.08332238745907697
828000000 0.9866971162028616 -0.08370005621074604
834000000 0.9871483129326262 -0.08523144465534563
840000000 0.9865026185255067 -0.08622612911723879
846000000 0.9858779548049927 -0.08591608474828506
852000000 0.9878530244188714 -0.08682484941014217
858000000 0.9897466338236618 -0.08676583907235419
864000000 0.9885914928717398 -0.08798555340536596
870000000 0.9879083342583097 -0.08884273530965632
876000000 0.9878538109099625 -0.08761415520086148
882000000 0.9849378202963788 -0.0878241709276693
888000000 0.9876057339339507 -0.08935435874603549
894000000 0.9875862361331018 -0.08999647407856946
900000000 0.9870503891640758 -0.089402585700011
